(1691508198.524707) can1 0CF00400#007D921F19000F92
(1691508198.544824) can1 0CF00400#407D913319000F92
(1691508198.546234) can1 10FF031C#039DAD0A398BD264
(1691508198.576307) can1 0CF00400#007D915119000F91
(1691508198.584718) can1 0CF00400#007D914019000F91
(1691508198.598580) can1 18FEF100#FF0000FCFF3D00CF
(1691508198.604630) can1 0CF00400#007D914619000F91
(1691508198.624657) can1 0CF00400#207D910719000F91
(1691508198.644856) can1 0CF00400#007D92EE18000F92
(1691508198.646113) can1 10FF031C#033D340C398BD264
(1691508198.664739) can1 0CF00400#607D91FC18000F92
(1691508198.684726) can1 0CF00400#407D910A19000F92
(1691508198.698574) can1 18FEF100#FF0000FCFF3D00CF
(1691508198.704702) can1 0CF00400#307D912419000F91
(1691508198.724719) can1 0CF00400#107D912319000F91
(1691508198.744850) can1 0CF00400#307D911819000F91
(1691508198.745611) can1 10FF031C#03DDBA0D398BD264
(1691508198.764733) can1 0CF00400#507D91FB18000F92
(1691508198.784742) can1 0CF00400#407D92C618000F93
(1691508198.799164) can1 18FEF100#FF0000FCFF3D00CF
(1691508198.804654) can1 0CF00400#607D92D618000F93
(1691508198.824654) can1 0CF00400#407D92F118000F93
(1691508198.845362) can1 0CF00400#107D921019000F92
(1691508198.850633) can1 10FF031C#037E410F398BD264
(1691508198.880694) can1 0CF00400#707D912319000F92
(1691508198.884770) can1 0CF00400#007D921419000F92
(1691508198.898607) can1 18FEF100#FF0000FCFF3D00CF
(1691508198.904733) can1 0CF00400#107D921C19000F92
(1691508198.924725) can1 0CF00400#307D92DB18000F92
(1691508198.945526) can1 0CF00400#007D93E218000F93
(1691508198.946198) can1 10FF031C#03DD85013A8BD264
(1691508198.964746) can1 0CF00400#407D92F718000F92
(1691508198.984791) can1 0CF00400#307D920819000F92
(1691508198.998651) can1 18FEF100#FF0000FCFF3D00CF
(1691508199.005254) can1 0CF00400#007D923719000F92
(1691508199.024740) can1 0CF00400#507D913119000F92
(1691508199.044885) can1 0CF00400#707D912719000F92
(1691508199.046205) can1 10FF031C#037D0C033A8BD264
(1691508199.064779) can1 0CF00400#607D911519000F92
(1691508199.084770) can1 0CF00400#407D92E118000F93
(1691508199.098710) can1 18FEF100#FF0000FCFF3D00CF
(1691508199.104733) can1 0CF00400#407D92F918000F92
(1691508199.124761) can1 0CF00400#107D921419000F92
(1691508199.144922) can1 0CF00400#507D912419000F92
(1691508199.146212) can1 10FF031C#031D93043A8BD264
(1691508199.176274) can1 0CF00400#107D914719000F91
(1691508199.185234) can1 0CF00400#207D914519000F91
(1691508199.198689) can1 18FEF100#FF0000FCFF3D00CF
(1691508199.204778) can1 0CF00400#707D914319000F92
(1691508199.224757) can1 0CF00400#407D921119000F93
(1691508199.244915) can1 0CF00400#207D931E19000F93
(1691508199.245739) can1 10FF031C#03BD19063A8BD264
(1691508199.264788) can1 0CF00400#707D923E19000F93
(1691508199.284800) can1 0CF00400#307D926E19000F92
(1691508199.298729) can1 18FEF100#FF0000FCFF3D00CF
(1691508199.304792) can1 0CF00400#607D919719000F92
(1691508199.324784) can1 0CF00400#307D919419000F91
(1691508199.345441) can1 0CF00400#507D919719000F92
(1691508199.345989) can1 10FF011C#34DE3118E5905EC1
(1691508199.346549) can1 10FF021C#D0610A0068EF0002
(1691508199.347106) can1 10FF031C#045DA0073A8BD264
(1691508199.364851) can1 0CF00400#607D916C19000F92
(1691508199.385290) can1 0CF00400#607D924719000F93
(1691508199.398745) can1 18FEF100#FF0000FCFF3D00CF
(1691508199.404796) can1 0CF00400#407D926419000F92
(1691508199.424793) can1 0CF00400#207D927B19000F92
(1691508199.444957) can1 0CF00400#707D91A419000F92
(1691508199.445874) can1 10FF031C#04FD26093A8BD264
(1691508199.446421) can1 10FF011C#74DE311826915EC1
(1691508199.446989) can1 10FF021C#405F060068EF0002
(1691508199.475978) can1 0CF00400#307D91B419000F91
(1691508199.484812) can1 0CF00400#507D91AC19000F92
(1691508199.498752) can1 18FEF100#FF0000FCFF3D00CF
(1691508199.504853) can1 0CF00400#307D91AD19000F91
(1691508199.524816) can1 0CF00400#007D926419000F92
(1691508199.544911) can1 0CF00400#407D925219000F93
(1691508199.546146) can1 10FF031C#049DAD0A3A8BD264
(1691508199.546698) can1 10FF011C#ACDE311852915EC1
(1691508199.547265) can1 10FF021C#0008070068EF0002
(1691508199.564776) can1 0CF00400#007D932019000F93
(1691508199.584789) can1 0CF00400#507D93DA18000F94
(1691508199.598794) can1 18FEF100#FF0000FCFF3D00CF
(1691508199.604801) can1 0CF00400#407D948A18000F94
(1691508199.624803) can1 0CF00400#407D951E18000F96
(1691508199.644975) can1 0CF00400#707D96C117000F97
(1691508199.646102) can1 10FF031C#043D340C3A8BD264
(1691508199.646649) can1 10FF011C#E3DE31188B915EC1
(1691508199.647220) can1 10FF021C#A0F1040068EF0002
(1691508199.676205) can1 0CF00400#707D975E17000F98
(1691508199.684838) can1 0CF00400#407D99FC16000F9A
(1691508199.698785) can1 18FEF100#FF0000FCFF3D00CF
(1691508199.704808) can1 0CF00400#607D991B17000F9A
(1691508199.724830) can1 0CF00400#507D98B817000F99
(1691508199.744995) can1 0CF00400#607D964318000F97
(1691508199.745728) can1 10FF031C#04DDBA0D3A8BD264
(1691508199.746286) can1 10FF011C#1ADF3118CB915EC1
(1691508199.746848) can1 10FF021C#A0B3060068EF0002
(1691508199.764879) can1 0CF00400#307D95B518000F95
(1691508199.784879) can1 0CF00400#307D940B19000F94
(1691508199.799373) can1 18FEF100#FF0000FCFF3D00CF
(1691508199.804823) can1 0CF00400#007D942919000F94
(1691508199.824849) can1 0CF00400#207D94FF18000F94
(1691508199.845490) can1 0CF00400#607D940719000F95
(1691508199.851250) can1 10FF031C#047E410F3A8BD264
(1691508199.851806) can1 10FF011C#4FDF3118E0915EC1
(1691508199.852369) can1 10FF021C#4021080068EF0002
(1691508199.881356) can1 0CF00400#407D941719000F95
(1691508199.885093) can1 0CF00400#607D940819000F95
(1691508199.898816) can1 18FEF100#FF0000FCFF3D00CF
(1691508199.904846) can1 0CF00400#707D942619000F95
(1691508199.924854) can1 0CF00400#507D942219000F95
(1691508199.946306) can1 10FF031C#04DD85013B8BD264
(1691508199.946863) can1 0CF00400#507D942519000F95
(1691508199.947419) can1 10FF011C#7BDF311804925EC1
(1691508199.947990) can1 10FF021C#20BF020068EF0002
(1691508199.964888) can1 0CF00400#207D942119000F94
(1691508199.985306) can1 0CF00400#507D940819000F95
(1691508199.998791) can1 18FEF100#FF0000FCFF3D00CF
(1691508200.005414) can1 0CF00400#707D933819000F94
(1691508200.024899) can1 0CF00400#107D935B19000F93
(1691508200.045041) can1 0CF00400#207D927819000F92
(1691508200.046179) can1 10FF031C#047D0C033B8BD264
(1691508200.046729) can1 10FF011C#AEDF311841925EC1
(1691508200.047289) can1 10FF021C#F075030068EF0002
(1691508200.064901) can1 0CF00400#407D919D19000F91
(1691508200.084901) can1 0CF00400#007D919D19000F91
(1691508200.098845) can1 18FEF100#FF0000FCFF3D00CF
(1691508200.104891) can1 0CF00400#607D90A019000F91
(1691508200.124849) can1 0CF00400#707D906D19000F91
(1691508200.145044) can1 0CF00400#107D916519000F91
(1691508200.145932) can1 10FF031C#041D93043B8BD264
(1691508200.146482) can1 10FF011C#EADF311885925EC1
(1691508200.147045) can1 10FF021C#00AB090068EF0002
(1691508200.176033) can1 0CF00400#107D915D19000F91
(1691508200.184931) can1 0CF00400#307D915419000F91
(1691508200.198856) can1 18FEF100#FF0000FCFF3D00CF
(1691508200.204924) can1 0CF00400#507D914B19000F92
(1691508200.224863) can1 0CF00400#707D912A19000F92
(1691508200.245064) can1 0CF00400#307D922B19000F92
(1691508200.246285) can1 10FF031C#04BD19063B8BD264
(1691508200.246837) can1 10FF011C#1DE03118A5925EC1
(1691508200.247389) can1 10FF021C#50F1090068EF0002
(1691508200.264927) can1 0CF00400#507D920619000F93
(1691508200.284949) can1 0CF00400#407D93F918000F93
(1691508200.298825) can1 18FEF100#FF0000FCFF3D00CF
(1691508200.304916) can1 0CF00400#107D932019000F93
(1691508200.324915) can1 0CF00400#107D932219000F93
(1691508200.345581) can1 0CF00400#107D934919000F93
(1691508200.346128) can1 10FF011C#48E03118CB925EC1
(1691508200.346689) can1 10FF021C#F018060068EF0002
(1691508200.347241) can1 10FF031C#045DA0073B8BD264
(1691508200.375986) can1 0CF00400#607D925D19000F93
(1691508200.384955) can1 0CF00400#107D934D19000F93
(1691508200.398844) can1 18FEF100#FF0000FCFF3D00CF
(1691508200.404917) can1 0CF00400#007D935519000F93
(1691508200.424923) can1 0CF00400#507D931B19000F94
(1691508200.445084) can1 0CF00400#607D933A19000F94
(1691508200.445920) can1 10FF031C#04FD26093B8BD264
(1691508200.446471) can1 10FF011C#77E03118F3925EC1
(1691508200.447039) can1 10FF021C#405F060068EF0002
(1691508200.464925) can1 0CF00400#407D934519000F93
(1691508200.484953) can1 0CF00400#107D935719000F93
(1691508200.498911) can1 18FEF100#FF0000FCFF3D00CF
(1691508200.504991) can1 0CF00400#507D927C19000F93
(1691508200.524955) can1 0CF00400#107D928519000F92
(1691508200.545071) can1 0CF00400#007D928C19000F92
(1691508200.546255) can1 10FF031C#049DAD0A3B8BD264
(1691508200.546815) can1 10FF011C#A7E031181A935EC1
(1691508200.547383) can1 10FF021C#2024070068EF0002
(1691508200.576369) can1 0CF00400#707D916D19000F92
(1691508200.584972) can1 0CF00400#007D926919000F92
(1691508200.598913) can1 18FEF100#FF0000FCFF3D00CF
(1691508200.604938) can1 0CF00400#307D917A19000F91
(1691508200.624972) can1 0CF00400#007D918819000F91
(1691508200.645078) can1 0CF00400#607D908E19000F91
(1691508200.645812) can1 10FF031C#043D340C3B8BD264
(1691508200.646360) can1 10FF011C#D6E031184A935EC1
(1691508200.646919) can1 10FF021C#603D080068EF0002
(1691508200.664985) can1 0CF00400#507D907D19000F91
(1691508200.684990) can1 0CF00400#707D906919000F91
(1691508200.698910) can1 18FEF100#FF0000FCFF3D00CF
(1691508200.704969) can1 0CF00400#007D914219000F91
(1691508200.724943) can1 0CF00400#007D920719000F92
(1691508200.745098) can1 0CF00400#007D921B19000F92
(1691508200.746184) can1 10FF031C#04DDBA0D3B8BD264
(1691508200.746735) can1 10FF011C#FEE031185E935EC1
(1691508200.747295) can1 10FF021C#90E3040068EF0002
(1691508200.776302) can1 0CF00400#007D921C19000F92
(1691508200.784985) can1 0CF00400#007D922B19000F92
(1691508200.799469) can1 18FEF100#FF0000FCFF3D00CF
(1691508200.804984) can1 0CF00400#607D913D19000F92
(1691508200.824999) can1 0CF00400#207D921A19000F92
(1691508200.845630) can1 0CF00400#507D922C19000F93
(1691508200.851455) can1 10FF031C#047E410F3B8BD264
(1691508200.852003) can1 10FF011C#2DE131185F935EC1
(1691508200.852568) can1 10FF021C#A056090068EF0002
(1691508200.864983) can1 0CF00400#707D92F318000F93
(1691508200.885007) can1 0CF00400#407D93F618000F93
(1691508200.898954) can1 18FEF100#FF0000FCFF3D00CF
(1691508200.904994) can1 0CF00400#307D930919000F93
(1691508200.924997) can1 0CF00400#207D931F19000F93
(1691508200.946327) can1 10FF031C#04DE85013C8BD264
(1691508200.946866) can1 10FF011C#5AE1311863935EC1
(1691508200.947426) can1 10FF021C#D0C60E0068EF0002
(1691508200.976429) can1 0CF00400#107D933419000F93
(1691508200.976987) can1 0CF00400#007D933319000F93
(1691508200.984955) can1 0CF00400#107D933319000F93
(1691508200.998928) can1 18FEF100#FF0000FCFF3D00CF
(1691508201.005533) can1 0CF00400#707D922E19000F93
(1691508201.025013) can1 0CF00400#307D932219000F93
(1691508201.045129) can1 0CF00400#707D924619000F93
(1691508201.046377) can1 10FF031C#047E0C033C8BD264
(1691508201.046929) can1 10FF011C#81E1311860935EC1
(1691508201.047493) can1 10FF021C#3080130068EF0002
(1691508201.065030) can1 0CF00400#307D926319000F92
(1691508201.084980) can1 0CF00400#707D917119000F92
(1691508201.098958) can1 18FEF100#FF0000FCFF3D00CF
(1691508201.105037) can1 0CF00400#207D918E19000F91
(1691508201.125037) can1 0CF00400#107D918319000F91
(1691508201.145225) can1 0CF00400#707D907F19000F91
(1691508201.145877) can1 10FF031C#041E93043C8BD264
(1691508201.146429) can1 10FF011C#B0E131187F935EC1
(1691508201.146985) can1 10FF021C#90D4130068EF0002
(1691508201.165008) can1 0CF00400#207D914119000F91
(1691508201.185089) can1 0CF00400#207D915419000F91
(1691508201.198974) can1 18FEF100#FF0000FCFF3D00CF
(1691508201.205090) can1 0CF00400#707D904F19000F91
(1691508201.225083) can1 0CF00400#007D914819000F91
(1691508201.245207) can1 0CF00400#607D906119000F91
(1691508201.246256) can1 10FF031C#04BE19063C8BD264
(1691508201.246799) can1 10FF011C#E9E13118C3935EC1
(1691508201.247358) can1 10FF021C#B02E120068EF0002
(1691508201.276369) can1 0CF00400#607D903E19000F91
(1691508201.285072) can1 0CF00400#207D913D19000F91
(1691508201.298956) can1 18FEF100#FF0000FCFF3D00CF
(1691508201.305096) can1 0CF00400#307D910B19000F91
(1691508201.325109) can1 0CF00400#307D92E818000F92
(1691508201.345665) can1 0CF00400#307D92EF18000F92
(1691508201.346311) can1 10FF031C#045EA0073C8BD264
(1691508201.346866) can1 10FF011C#1AE2311802945EC1
(1691508201.347422) can1 10FF021C#50750D0068EF0002
(1691508201.365078) can1 0CF00400#307D92F218000F92
(1691508201.385129) can1 0CF00400#507D92F718000F93
(1691508201.399170) can1 18FEF100#FF0000FCFF3D00CF
(1691508201.405073) can1 0CF00400#607D920119000F93
(1691508201.425121) can1 0CF00400#707D92F818000F93
(1691508201.445206) can1 0CF00400#007D93F418000F93
(1691508201.446342) can1 10FF031C#04FE26093C8BD264
(1691508201.446893) can1 10FF011C#47E2311839945EC1
(1691508201.447453) can1 10FF021C#E0AD080068EF0002
(1691508201.476448) can1 0CF00400#507D93C318000F94
(1691508201.485087) can1 0CF00400#607D93DE18000F94
(1691508201.499398) can1 18FEF100#FF0000FCFF3D00CF
(1691508201.505158) can1 0CF00400#507D93F818000F94
(1691508201.525099) can1 0CF00400#307D931019000F93
(1691508201.545200) can1 0CF00400#107D932E19000F93
(1691508201.546472) can1 10FF031C#049EAD0A3C8BD264
(1691508201.547015) can1 10FF011C#75E2311863945EC1
(1691508201.547576) can1 10FF021C#A075080068EF0002
(1691508201.565032) can1 0CF00400#707D922619000F93
(1691508201.585114) can1 0CF00400#007D933519000F93
(1691508201.599563) can1 18FEF100#FF0000FCFF3D00CF
(1691508201.605103) can1 0CF00400#507D922619000F93
(1691508201.625115) can1 0CF00400#007D932A19000F93
(1691508201.645218) can1 0CF00400#107D924F19000F92
(1691508201.645806) can1 10FF031C#043E340C3C8BD264
(1691508201.646349) can1 10FF011C#A2E2311891945EC1
(1691508201.646914) can1 10FF021C#E0CC070068EF0002
(1691508201.665112) can1 0CF00400#607D915C19000F92
(1691508201.685124) can1 0CF00400#207D918219000F91
(1691508201.699603) can1 18FEF100#FF0000FCFF3D00CF
(1691508201.705140) can1 0CF00400#507D907E19000F91
(1691508201.725140) can1 0CF00400#607D906A19000F91
(1691508201.745241) can1 0CF00400#407D906419000F90
(1691508201.746197) can1 10FF031C#04DEBA0D3C8BD264
(1691508201.746740) can1 10FF011C#D4E23118D2945EC1
(1691508201.747304) can1 10FF021C#D0DD060068EF0002
(1691508201.776311) can1 0CF00400#107D911A19000F91
(1691508201.785131) can1 0CF00400#207D912919000F91
(1691508201.800142) can1 18FEF100#FF0000FCFF3D00CF
(1691508201.805161) can1 0CF00400#107D912C19000F91
(1691508201.825134) can1 0CF00400#107D912319000F91
(1691508201.845794) can1 0CF00400#107D912F19000F91
(1691508201.850628) can1 10FF031C#047F410F3C8BD264
(1691508201.851183) can1 10FF011C#06E3311825955EC1
(1691508201.851755) can1 10FF021C#00CA080068EF0002
(1691508201.865116) can1 0CF00400#207D911D19000F91
(1691508201.885121) can1 0CF00400#507D910919000F92
(1691508201.899050) can1 18FEF100#FF0000FCFF3D00CF
(1691508201.905155) can1 0CF00400#207D92D318000F92
(1691508201.925125) can1 0CF00400#707D92D118000F93
(1691508201.946338) can1 10FF031C#04DE85013D8BD264
(1691508201.946887) can1 10FF011C#35E3311874955EC1
(1691508201.947447) can1 10FF021C#103D0D0068EF0002
(1691508201.976428) can1 0CF00400#607D92D918000F93
(1691508201.976986) can1 0CF00400#607D92E518000F93
(1691508201.985161) can1 0CF00400#607D92F518000F93
(1691508201.999024) can1 18FEF100#FF0000FCFF3D00CF
(1691508202.005700) can1 0CF00400#507D92F618000F93
(1691508202.025176) can1 0CF00400#007D93EE18000F93
(1691508202.045266) can1 0CF00400#707D92F018000F93
(1691508202.046414) can1 10FF031C#047E0C033D8BD264
(1691508202.046961) can1 10FF011C#5CE3311889955EC1
(1691508202.047521) can1 10FF021C#C0150C0068EF0002
(1691508202.065168) can1 0CF00400#507D93BF18000F94
(1691508202.085162) can1 0CF00400#407D93EF18000F93
(1691508202.099100) can1 18FEF100#FF0000FCFF3D00CF
(1691508202.105192) can1 0CF00400#007D930919000F93
(1691508202.125123) can1 0CF00400#707D922019000F93
(1691508202.145312) can1 0CF00400#207D924819000F92
(1691508202.145872) can1 10FF031C#041E93043D8BD264
(1691508202.146425) can1 10FF011C#7DE331187B955EC1
(1691508202.146988) can1 10FF021C#4040070068EF0002
(1691508202.165174) can1 0CF00400#107D923D19000F92
(1691508202.185213) can1 0CF00400#107D925019000F92
(1691508202.199097) can1 18FEF100#FF0000FCFF3D00CF
(1691508202.205227) can1 0CF00400#107D921D19000F92
(1691508202.225190) can1 0CF00400#607D921319000F93
(1691508202.245304) can1 0CF00400#207D922619000F92
(1691508202.246248) can1 10FF031C#04BE19063D8BD264
(1691508202.246796) can1 10FF011C#95E331185E955EC1
(1691508202.247352) can1 10FF021C#B0A2070068EF0002
(1691508202.276388) can1 0CF00400#007D922B19000F92
(1691508202.285194) can1 0CF00400#707D914619000F92
(1691508202.299070) can1 18FEF100#FF0000FCFF3D00CF
(1691508202.305228) can1 0CF00400#407D914919000F91
(1691508202.325195) can1 0CF00400#407D913D19000F92
(1691508202.345763) can1 0CF00400#307D913119000F91
(1691508202.346346) can1 10FF031C#045EA0073D8BD264
(1691508202.346875) can1 10FF011C#B2E3311844955EC1
(1691508202.347437) can1 10FF021C#20B0110068EF0002
(1691508202.365231) can1 0CF00400#007D920E19000F92
(1691508202.385257) can1 0CF00400#007D921C19000F92
(1691508202.399124) can1 18FEF100#FF0000FCFF3D00CF
(1691508202.405213) can1 0CF00400#707D912419000F92
(1691508202.425229) can1 0CF00400#607D912C19000F92
(1691508202.445382) can1 0CF00400#607D912F19000F92
(1691508202.446368) can1 10FF031C#04FE26093D8BD264
(1691508202.446916) can1 10FF011C#C9E3311827955EC1
(1691508202.447479) can1 10FF021C#E060190068EF0002
(1691508202.476477) can1 0CF00400#107D921019000F92
(1691508202.485225) can1 0CF00400#407D921019000F92
(1691508202.499114) can1 18FEF100#FF0000FCFF3D00CF
(1691508202.505275) can1 0CF00400#707D92D618000F93
(1691508202.525226) can1 0CF00400#407D93DA18000F93
(1691508202.545370) can1 0CF00400#007D93F318000F93
(1691508202.545992) can1 10FF031C#049EAD0A3D8BD264
(1691508202.546543) can1 10FF011C#E2E331180E955EC1
(1691508202.547111) can1 10FF021C#A030200068EF0002
(1691508202.565229) can1 0CF00400#107D93F718000F93
(1691508202.585295) can1 0CF00400#007D932419000F93
(1691508202.599164) can1 18FEF100#FF0000FCFF3D00CF
(1691508202.605260) can1 0CF00400#607D921F19000F93
(1691508202.625214) can1 0CF00400#007D931819000F93
(1691508202.645381) can1 0CF00400#707D920F19000F93
(1691508202.645928) can1 10FF011C#05E4311832955EC1
(1691508202.646504) can1 10FF021C#00E21D0068EF0002
(1691508202.647041) can1 10FF031C#043E340C3D8BD264
(1691508202.665237) can1 0CF00400#407D93E618000F94
(1691508202.685223) can1 0CF00400#207D930D19000F93
(1691508202.699133) can1 18FEF100#FF0000FCFF3D00CF
(1691508202.705210) can1 0CF00400#707D921C19000F93
(1691508202.725273) can1 0CF00400#407D922819000F93
(1691508202.745393) can1 0CF00400#107D924919000F92
(1691508202.745944) can1 10FF011C#29E4311863955EC1
(1691508202.746503) can1 10FF021C#80CE1A0068EF0002
(1691508202.747050) can1 10FF031C#04DEBA0D3D8BD264
(1691508202.775933) can1 0CF00400#707D914619000F92
(1691508202.785252) can1 0CF00400#607D915619000F92
(1691508202.799742) can1 18FEF100#FF0000FCFF3D00CF
(1691508202.805286) can1 0CF00400#507D912A19000F92
(1691508202.825211) can1 0CF00400#707D912F19000F92
(1691508202.845776) can1 0CF00400#407D914219000F91
(1691508202.850654) can1 10FF031C#047F410F3D8BD264
(1691508202.851202) can1 10FF011C#40E4311868955EC1
(1691508202.851758) can1 10FF021C#70DF190068EF0002
(1691508202.865268) can1 0CF00400#107D915319000F91
(1691508202.885295) can1 0CF00400#107D915919000F91
(1691508202.899184) can1 18FEF100#FF0000FCFF3D00CF
(1691508202.905306) can1 0CF00400#107D913F19000F91
(1691508202.925274) can1 0CF00400#407D913319000F91
(1691508202.945892) can1 10FF031C#04DE85013E8BD264
(1691508202.946438) can1 10FF011C#59E4311865955EC1
(1691508202.947009) can1 10FF021C#80711D0068EF0002
(1691508202.975985) can1 0CF00400#507D910619000F92
(1691508202.976551) can1 0CF00400#607D92CF18000F93
(1691508202.985286) can1 0CF00400#607D92E118000F93
(1691508202.999204) can1 18FEF100#FF0000FCFF3D00CF
(1691508203.005793) can1 0CF00400#607D92E618000F93
(1691508203.025284) can1 0CF00400#607D92F118000F93
(1691508203.045408) can1 0CF00400#507D920919000F93
(1691508203.045949) can1 10FF011C#71E431185C955EC1
(1691508203.046518) can1 10FF021C#0028230068EF0002
(1691508203.047081) can1 10FF031C#047E0C033E8BD264
(1691508203.065350) can1 0CF00400#707D92F118000F93
(1691508203.085305) can1 0CF00400#007D930619000F93
(1691508203.099215) can1 18FEF100#FF0000FCFF3D00CF
(1691508203.105312) can1 0CF00400#107D93D518000F93
(1691508203.125304) can1 0CF00400#407D93E918000F94
(1691508203.145451) can1 0CF00400#107D93FB18000F93
(1691508203.146000) can1 10FF011C#8DE431186F955EC1
(1691508203.146564) can1 10FF021C#1055220068EF0002
(1691508203.147140) can1 10FF031C#041E93043E8BD264
(1691508203.175641) can1 0CF00400#007D930919000F93
(1691508203.185320) can1 0CF00400#707D922F19000F93
(1691508203.199226) can1 18FEF100#FF0000FCFF3D00CF
(1691508203.205342) can1 0CF00400#407D922D19000F92
(1691508203.225318) can1 0CF00400#507D922619000F93
(1691508203.245458) can1 0CF00400#307D921E19000F92
(1691508203.246012) can1 10FF031C#04BE19063E8BD264
(1691508203.246565) can1 10FF011C#A7E431188F955EC1
(1691508203.247132) can1 10FF021C#20DF1E0068EF0002
(1691508203.265314) can1 0CF00400#607D920919000F93
(1691508203.285322) can1 0CF00400#207D922619000F92
(1691508203.299207) can1 18FEF100#FF0000FCFF3D00CF
(1691508203.305334) can1 0CF00400#607D914019000F92
(1691508203.325343) can1 0CF00400#207D915019000F91
(1691508203.345780) can1 10FF031C#045EA0073E8BD264
(1691508203.346323) can1 10FF011C#C2E43118B4955EC1
(1691508203.346887) can1 10FF021C#F04F1A0068EF0002
(1691508203.375873) can1 0CF00400#707D905C19000F91
(1691508203.376432) can1 0CF00400#707D905519000F91
(1691508203.385396) can1 0CF00400#607D904B19000F91
(1691508203.399271) can1 18FEF100#FF0000FCFF3D00CF
(1691508203.405382) can1 0CF00400#307D910419000F91
(1691508203.425314) can1 0CF00400#507D911819000F92
(1691508203.445478) can1 0CF00400#207D911719000F91
(1691508203.446018) can1 10FF011C#D6E43118B0955EC1
(1691508203.446578) can1 10FF021C#40391D0068EF0002
(1691508203.447138) can1 10FF031C#04FE26093E8BD264
(1691508203.465360) can1 0CF00400#407D910B19000F92
(1691508203.485348) can1 0CF00400#407D911F19000F91
(1691508203.499244) can1 18FEF100#FF0000FCFF3D00CF
(1691508203.505435) can1 0CF00400#407D910719000F91
(1691508203.525361) can1 0CF00400#707D910519000F92
(1691508203.545757) can1 0CF00400#007D92E218000F92
(1691508203.546296) can1 10FF011C#E9E43118AC955EC1
(1691508203.546869) can1 10FF021C#60F81F0068EF0002
(1691508203.547439) can1 10FF031C#049EAD0A3E8BD264
(1691508203.575991) can1 0CF00400#007D93BE18000F93
(1691508203.585367) can1 0CF00400#607D92D418000F93
(1691508203.599301) can1 18FEF100#FF0000FCFF3D00CF
(1691508203.605367) can1 0CF00400#507D92ED18000F93
(1691508203.625390) can1 0CF00400#407D92FC18000F92
(1691508203.645477) can1 10FF031C#043E340C3E8BD264
(1691508203.646035) can1 0CF00400#307D920E19000F92
(1691508203.646585) can1 10FF011C#FCE43118A6955EC1
(1691508203.647152) can1 10FF021C#407F220068EF0002
(1691508203.665374) can1 0CF00400#507D920619000F93
(1691508203.685461) can1 0CF00400#507D920A19000F93
(1691508203.699298) can1 18FEF100#FF0000FCFF3D00CF
(1691508203.705378) can1 0CF00400#707D92DD18000F93
(1691508203.725414) can1 0CF00400#207D93ED18000F93
(1691508203.745584) can1 0CF00400#007D930119000F93
(1691508203.746131) can1 10FF011C#0FE531189D955EC1
(1691508203.746691) can1 10FF021C#00CB250068EF0002
(1691508203.747247) can1 10FF031C#04DEBA0D3E8BD264
(1691508203.775853) can1 0CF00400#707D920E19000F93
(1691508203.785385) can1 0CF00400#607D922219000F93
(1691508203.799888) can1 18FEF100#FF0000FCFF3D00CF
(1691508203.805380) can1 0CF00400#507D921719000F93
(1691508203.825357) can1 0CF00400#607D921B19000F93
(1691508203.845781) can1 0CF00400#407D920219000F93
(1691508203.850768) can1 10FF031C#047F410F3E8BD264
(1691508203.851313) can1 10FF011C#28E53118B6955EC1
(1691508203.851877) can1 10FF021C#1055220068EF0002
(1691508203.865382) can1 0CF00400#007D93FE18000F93
(1691508203.885438) can1 0CF00400#207D922919000F92
(1691508203.899326) can1 18FEF100#FF0000FCFF3D00CF
(1691508203.905424) can1 0CF00400#607D912F19000F92
(1691508203.925436) can1 0CF00400#307D915419000F91
(1691508203.945902) can1 10FF031C#04DE85013F8BD264
(1691508203.946445) can1 10FF011C#41E53118CB955EC1
(1691508203.947009) can1 10FF021C#20A1200068EF0002
(1691508203.975988) can1 0CF00400#507D906A19000F91
(1691508203.976550) can1 0CF00400#607D905219000F91
(1691508203.985418) can1 0CF00400#407D905319000F91
(1691508203.999356) can1 18FEF100#FF0000FCFF3D00CF
(1691508204.006395) can1 0CF00400#707D901419000F91
(1691508204.025433) can1 0CF00400#207D911A19000F91
(1691508204.045565) can1 0CF00400#107D911F19000F91
(1691508204.046117) can1 10FF011C#59E53118CE955EC1
(1691508204.046700) can1 10FF021C#407F220068EF0002
(1691508204.047249) can1 10FF031C#047E0C033F8BD264
(1691508204.065458) can1 0CF00400#107D911419000F91
(1691508204.085447) can1 0CF00400#107D911919000F91
(1691508204.099390) can1 18FEF100#FF0000FCFF3D00CF
(1691508204.105440) can1 0CF00400#207D910619000F91
(1691508204.125461) can1 0CF00400#407D91F918000F92
(1691508204.145593) can1 0CF00400#007D92C918000F92
(1691508204.146133) can1 10FF011C#72E53118D9955EC1
(1691508204.146701) can1 10FF021C#3071220068EF0002
(1691508204.147263) can1 10FF031C#041E93043F8BD264
(1691508204.175718) can1 0CF00400#007D93B018000F93
(1691508204.185466) can1 0CF00400#707D92BD18000F93
(1691508204.199396) can1 18FEF100#FF0000FCFF3D00CF
(1691508204.205482) can1 0CF00400#707D92C418000F93
(1691508204.225438) can1 0CF00400#707D92D218000F93
(1691508204.245581) can1 0CF00400#707D92E018000F93
(1691508204.246123) can1 10FF011C#8AE53118F2955EC1
(1691508204.246694) can1 10FF021C#90411F0068EF0002
(1691508204.247255) can1 10FF031C#04BE19063F8BD264
(1691508204.265474) can1 0CF00400#107D93DB18000F93
(1691508204.285467) can1 0CF00400#007D93E718000F93
(1691508204.299387) can1 18FEF100#FF0000FCFF3D00CF
(1691508204.305503) can1 0CF00400#307D93B418000F93
(1691508204.325461) can1 0CF00400#407D93DD18000F94
(1691508204.345813) can1 0CF00400#107D93F518000F93
(1691508204.346366) can1 10FF011C#A0E5311807965EC1
(1691508204.346923) can1 10FF021C#B0BA1C0068EF0002
(1691508204.347486) can1 10FF031C#045EA0073F8BD264
(1691508204.376180) can1 0CF00400#707D921419000F93
(1691508204.385547) can1 0CF00400#307D923E19000F92
(1691508204.399426) can1 18FEF100#FF0000FCFF3D00CF
(1691508204.405491) can1 0CF00400#107D922C19000F92
(1691508204.425509) can1 0CF00400#207D923E19000F92
(1691508204.445589) can1 0CF00400#607D912B19000F92
(1691508204.446366) can1 10FF031C#04FF26093F8BD264
(1691508204.446917) can1 10FF011C#B6E531181F965EC1
(1691508204.447484) can1 10FF021C#A0091A0068EF0002
(1691508204.465516) can1 0CF00400#307D920D19000F92
(1691508204.485477) can1 0CF00400#707D912719000F92
(1691508204.499432) can1 18FEF100#FF0000FCFF3D00CF
(1691508204.505798) can1 0CF00400#307D913119000F91
(1691508204.525494) can1 0CF00400#107D913B19000F91
(1691508204.545615) can1 0CF00400#507D904B19000F91
(1691508204.546165) can1 10FF011C#CDE5311839965EC1
(1691508204.546725) can1 10FF021C#B074170068EF0002
(1691508204.547277) can1 10FF031C#049FAD0A3F8BD264
(1691508204.576039) can1 0CF00400#507D903719000F91
(1691508204.585514) can1 0CF00400#507D902419000F91
(1691508204.599464) can1 18FEF100#FF0000FCFF3D00CF
(1691508204.605599) can1 0CF00400#107D91F318000F91
(1691508204.625540) can1 0CF00400#207D91FC18000F91
(1691508204.645648) can1 0CF00400#207D91FC18000F91
(1691508204.646201) can1 10FF011C#E4E531183D965EC1
(1691508204.646760) can1 10FF021C#B0171A0068EF0002
(1691508204.647320) can1 10FF031C#043F340C3F8BD264
(1691508204.665550) can1 0CF00400#207D91FA18000F91
(1691508204.685524) can1 0CF00400#407D910719000F91
(1691508204.699469) can1 18FEF100#FF0000FCFF3D00CF
(1691508204.705798) can1 0CF00400#407D91E918000F92
(1691508204.725555) can1 0CF00400#107D92E618000F92
(1691508204.745648) can1 0CF00400#307D92BD18000F92
(1691508204.746201) can1 10FF011C#FAE531183D965EC1
(1691508204.746760) can1 10FF021C#10F01D0068EF0002
(1691508204.747315) can1 10FF031C#04DFBA0D3F8BD264
(1691508204.776202) can1 0CF00400#207D93AB18000F93
(1691508204.785588) can1 0CF00400#007D93C518000F93
(1691508204.800050) can1 18FEF100#FF0000FCFF3D00CF
(1691508204.806038) can1 0CF00400#007D93C718000F93
(1691508204.825572) can1 0CF00400#007D93E418000F93
(1691508204.845773) can1 0CF00400#507D92F318000F93
(1691508204.850674) can1 10FF031C#0480410F3F8BD264
(1691508204.851219) can1 10FF011C#11E6311850965EC1
(1691508204.851770) can1 10FF021C#D0B71D0068EF0002
(1691508204.865570) can1 0CF00400#007D93F018000F93
(1691508204.885558) can1 0CF00400#707D920319000F93
(1691508204.899505) can1 18FEF100#FF0000FCFF3D00CF
(1691508204.905532) can1 0CF00400#107D93C618000F93
(1691508204.925568) can1 0CF00400#307D93E618000F93
(1691508204.946513) can1 10FF031C#04DF8501408BD264
(1691508204.947059) can1 10FF011C#26E6311856965EC1
(1691508204.947630) can1 10FF021C#F076200068EF0002
(1691508204.976611) can1 0CF00400#707D920519000F93
(1691508204.977163) can1 0CF00400#507D921719000F93
(1691508204.985566) can1 0CF00400#307D923619000F92
(1691508204.999512) can1 18FEF100#FF0000FCFF3D00CF
(1691508205.005805) can1 0CF00400#707D913D19000F92
(1691508205.025547) can1 0CF00400#607D913E19000F92
(1691508205.045694) can1 0CF00400#507D912119000F92
(1691508205.046243) can1 10FF011C#3DE631185B965EC1
(1691508205.046807) can1 10FF021C#1074210068EF0002
(1691508205.047367) can1 10FF031C#047F0C03408BD264
(1691508205.065602) can1 0CF00400#107D920D19000F92
(1691508205.085567) can1 0CF00400#607D911519000F92
(1691508205.099493) can1 18FEF100#FF0000FCFF3D00CF
(1691508205.105575) can1 0CF00400#307D912819000F91
(1691508205.125582) can1 0CF00400#007D913719000F91
(1691508205.145715) can1 0CF00400#707D903619000F91
(1691508205.146271) can1 10FF011C#3FE6311863965EC1
(1691508205.146834) can1 10FF021C#D05A200068EF0002
(1691508205.147395) can1 10FF031C#041F9304408BD264
(1691508205.165610) can1 0CF00400#007D912419000F91
(1691508205.185614) can1 0CF00400#007D911E19000F91
(1691508205.199552) can1 18FEF100#FF0000FCFF3D00CF
(1691508205.205623) can1 0CF00400#407D91DC18000F91
(1691508205.225612) can1 0CF00400#607D91F018000F92
(1691508205.245705) can1 0CF00400#607D91F218000F92
(1691508205.246254) can1 10FF011C#4FE6311883965EC1
(1691508205.246821) can1 10FF021C#00201C0068EF0002
(1691508205.247376) can1 10FF031C#04BF1906408BD264
(1691508205.276039) can1 0CF00400#707D91F318000F92
(1691508205.285606) can1 0CF00400#607D910219000F92
(1691508205.299547) can1 18FEF100#FF0000FCFF3D00CF
(1691508205.305606) can1 0CF00400#007D92E618000F92
(1691508205.325619) can1 0CF00400#307D92EE18000F92
(1691508205.345796) can1 0CF00400#407D92C518000F92
(1691508205.346346) can1 10FF011C#73E63118B0965EC1
(1691508205.346907) can1 10FF021C#707A150068EF0002
(1691508205.347467) can1 10FF031C#045FA007408BD264
(1691508205.365661) can1 0CF00400#307D93B918000F93
(1691508205.385665) can1 0CF00400#007D93D618000F93
(1691508205.399564) can1 18FEF100#FF0000FCFF3D00CF
(1691508205.405595) can1 0CF00400#707D92E418000F93
(1691508205.425632) can1 0CF00400#607D92FD18000F93
(1691508205.445730) can1 0CF00400#407D921A19000F93
(1691508205.446273) can1 10FF011C#99E63118D8965EC1
(1691508205.446831) can1 10FF021C#608B140068EF0002
(1691508205.447387) can1 10FF031C#04FF2609408BD264
(1691508205.475865) can1 0CF00400#507D921019000F93
(1691508205.485597) can1 0CF00400#507D920A19000F93
(1691508205.499530) can1 18FEF100#FF0000FCFF3D00CF
(1691508205.505669) can1 0CF00400#007D93E018000F93
(1691508205.525642) can1 0CF00400#007D93F618000F93
(1691508205.545615) can1 10FF031C#049FAD0A408BD264
(1691508205.546171) can1 0CF00400#507D920B19000F93
(1691508205.546728) can1 10FF011C#C1E6311806975EC1
(1691508205.547287) can1 10FF021C#60E8110068EF0002
(1691508205.565664) can1 0CF00400#107D922319000F92
(1691508205.585620) can1 0CF00400#507D913D19000F92
(1691508205.599556) can1 18FEF100#FF0000FCFF3D00CF
(1691508205.605627) can1 0CF00400#207D913C19000F91
(1691508205.625660) can1 0CF00400#107D914A19000F91
(1691508205.645743) can1 0CF00400#707D902119000F91
(1691508205.646287) can1 10FF011C#D9E631182E975EC1
(1691508205.646850) can1 10FF021C#E0120D0068EF0002
(1691508205.647410) can1 10FF031C#043F340C408BD264
(1691508205.675924) can1 0CF00400#407D911219000F92
(1691508205.685659) can1 0CF00400#007D912B19000F91
(1691508205.699604) can1 18FEF100#FF0000FCFF3D00CF
(1691508205.705648) can1 0CF00400#607D902D19000F91
(1691508205.725619) can1 0CF00400#607D903719000F91
(1691508205.745731) can1 10FF031C#04DFBA0D408BD264
(1691508205.746307) can1 0CF00400#507D903019000F91
(1691508205.746836) can1 10FF011C#E8E6311857975EC1
(1691508205.747397) can1 10FF021C#B0FF040068EF0002
(1691508205.765668) can1 0CF00400#107D911619000F91
(1691508205.785683) can1 0CF00400#207D910119000F91
(1691508205.800130) can1 18FEF100#FF0000FCFF3D00CF
(1691508205.805655) can1 0CF00400#007D92C118000F92
(1691508205.825687) can1 0CF00400#307D92CC18000F92
(1691508205.845835) can1 0CF00400#407D92D418000F92
(1691508205.850657) can1 10FF031C#0480410F408BD264
(1691508205.851193) can1 10FF011C#FDE631186A975EC1
(1691508205.851754) can1 10FF021C#C00D050068EF0002
(1691508205.880759) can1 0CF00400#307D92DE18000F92
(1691508205.885703) can1 0CF00400#307D92F118000F92
(1691508205.899621) can1 18FEF100#FF0000FCFF3D00CF
(1691508205.905683) can1 0CF00400#307D92E918000F92
(1691508205.925705) can1 0CF00400#507D92ED18000F93
(1691508205.945952) can1 10FF031C#04DF8501418BD264
(1691508205.946499) can1 10FF011C#16E731187C975EC1
(1691508205.947067) can1 0CF00400#607D92D718000F93
(1691508205.947631) can1 10FF021C#A0B3060068EF0002
(1691508205.965721) can1 0CF00400#307D93CB18000F93
(1691508205.985705) can1 0CF00400#107D93DA18000F93
(1691508205.999593) can1 18FEF100#FF0000FCFF3D00CF
(1691508206.005835) can1 0CF00400#007D93F618000F93
(1691508206.025718) can1 0CF00400#607D920919000F93
(1691508206.045515) can1 10FF031C#047F0C03418BD264
(1691508206.046070) can1 0CF00400#507D921319000F93
(1691508206.046623) can1 10FF011C#2AE731187C975EC1
(1691508206.047183) can1 10FF021C#F05E0B0068EF0002
(1691508206.065728) can1 0CF00400#507D921019000F93
(1691508206.085728) can1 0CF00400#407D920F19000F92
(1691508206.099597) can1 18FEF100#FF0000FCFF3D00CF
(1691508206.105712) can1 0CF00400#607D92DB18000F93
(1691508206.125732) can1 0CF00400#407D920F19000F93
(1691508206.145803) can1 10FF031C#041F9304418BD264
(1691508206.146358) can1 10FF011C#33E731187D975EC1
(1691508206.146918) can1 10FF021C#D0230C0068EF0002
(1691508206.175883) can1 0CF00400#007D922219000F92
(1691508206.176438) can1 0CF00400#507D913319000F92
(1691508206.185760) can1 0CF00400#707D906619000F91
(1691508206.199803) can1 18FEF100#FF0000FCFF3D00CF
(1691508206.205747) can1 0CF00400#407D905A19000F90
(1691508206.225723) can1 0CF00400#507D905919000F91
(1691508206.245808) can1 0CF00400#607D902219000F91
(1691508206.246360) can1 10FF011C#34E7311880975EC1
(1691508206.246924) can1 10FF021C#A0180B0068EF0002
(1691508206.247480) can1 10FF031C#04BF1906418BD264
(1691508206.265738) can1 0CF00400#407D910C19000F91
(1691508206.285746) can1 0CF00400#307D910619000F91
(1691508206.300012) can1 18FEF100#FF0000FCFF3D00CF
(1691508206.305776) can1 0CF00400#307D910B19000F91
(1691508206.325746) can1 0CF00400#307D910B19000F91
(1691508206.345863) can1 0CF00400#407D910419000F92
(1691508206.346410) can1 10FF011C#36E7311871975EC1
(1691508206.346983) can1 10FF021C#20EE0F0068EF0002
(1691508206.347552) can1 10FF031C#045FA007418BD264
(1691508206.376017) can1 0CF00400#707D91ED18000F92
(1691508206.385814) can1 0CF00400#007D92DE18000F92
(1691508206.400183) can1 18FEF100#FF0000FCFF3D00CF
(1691508206.405702) can1 0CF00400#607D92A718000F93
(1691508206.425775) can1 0CF00400#107D93B818000F93
(1691508206.445827) can1 0CF00400#707D92DA18000F93
(1691508206.446379) can1 10FF011C#3BE731186E975EC1
(1691508206.446938) can1 10FF021C#E039130068EF0002
(1691508206.447498) can1 10FF031C#04FF2609418BD264
(1691508206.465761) can1 0CF00400#507D92F218000F93
(1691508206.485772) can1 0CF00400#407D920819000F92
(1691508206.500230) can1 18FEF100#FF0000FCFF3D00CF
(1691508206.505841) can1 0CF00400#407D920419000F93
(1691508206.525773) can1 0CF00400#507D920E19000F93
(1691508206.545541) can1 10FF031C#049FAD0A418BD264
(1691508206.546087) can1 10FF011C#55E7311887975EC1
(1691508206.546648) can1 10FF021C#D04A120068EF0002
(1691508206.575637) can1 0CF00400#707D92E718000F93
(1691508206.576207) can1 0CF00400#307D93E218000F93
(1691508206.585782) can1 0CF00400#707D92F818000F93
(1691508206.600272) can1 18FEF100#FF0000FCFF3D00CF
(1691508206.605772) can1 0CF00400#607D920319000F93
(1691508206.625770) can1 0CF00400#407D922F19000F92
(1691508206.645865) can1 0CF00400#607D913F19000F92
(1691508206.646409) can1 10FF011C#6AE731189A975EC1
(1691508206.646968) can1 10FF021C#9012120068EF0002
(1691508206.647528) can1 10FF031C#043F340C418BD264
(1691508206.665788) can1 0CF00400#707D913819000F92
(1691508206.685785) can1 0CF00400#407D914819000F91
(1691508206.699657) can1 18FEF100#FF0000FCFF3D00CF
(1691508206.705814) can1 0CF00400#607D911219000F92
(1691508206.725799) can1 0CF00400#707D912319000F92
(1691508206.745838) can1 10FF031C#04DFBA0D418BD264
(1691508206.746384) can1 10FF011C#8BE73118B9975EC1
(1691508206.746942) can1 10FF021C#8042100068EF0002
(1691508206.775919) can1 0CF00400#407D912E19000F92
(1691508206.776482) can1 0CF00400#207D913619000F91
(1691508206.785825) can1 0CF00400#007D914119000F91
(1691508206.800824) can1 18FEF100#FF0000FCFF3D00CF
(1691508206.805786) can1 0CF00400#707D903919000F91
(1691508206.825771) can1 0CF00400#107D912719000F91
(1691508206.845924) can1 0CF00400#507D91EF18000F92
(1691508206.850849) can1 10FF031C#0480410F418BD264
(1691508206.851396) can1 10FF011C#A9E73118D7975EC1
(1691508206.851956) can1 10FF021C#8042100068EF0002
(1691508206.865787) can1 0CF00400#107D92DC18000F92
(1691508206.885828) can1 0CF00400#007D92E418000F92
(1691508206.899751) can1 18FEF100#FF0000FCFF3D00CF
(1691508206.905852) can1 0CF00400#007D92F118000F92
(1691508206.925850) can1 0CF00400#007D92FC18000F92
(1691508206.945919) can1 10FF031C#04DF8501428BD264
(1691508206.946468) can1 10FF011C#C7E73118F5975EC1
(1691508206.947028) can1 10FF021C#10E00F0068EF0002
(1691508206.976022) can1 0CF00400#107D920419000F92
(1691508206.976588) can1 0CF00400#207D92F518000F92
(1691508206.985844) can1 0CF00400#307D92E618000F92
(1691508206.999740) can1 18FEF100#FF0000FCFF3D00CF
(1691508207.005910) can1 0CF00400#207D93AD18000F93
(1691508207.025854) can1 0CF00400#307D93DB18000F93
(1691508207.045646) can1 10FF031C#047F0C03428BD264
(1691508207.046219) can1 0CF00400#107D93E918000F93
(1691508207.046767) can1 10FF011C#E1E7311812985EC1
(1691508207.047323) can1 10FF021C#50370F0068EF0002
(1691508207.065833) can1 0CF00400#707D920019000F93
(1691508207.085851) can1 0CF00400#507D922019000F93
(1691508207.099755) can1 18FEF100#FF0000FCFF3D00CF
(1691508207.105876) can1 0CF00400#507D920F19000F93
(1691508207.125833) can1 0CF00400#507D922B19000F93
(1691508207.145955) can1 0CF00400#307D920819000F92
(1691508207.146510) can1 10FF011C#F3E7311828985EC1
(1691508207.147067) can1 10FF021C#C0D70D0068EF0002
(1691508207.147626) can1 10FF031C#041F9304428BD264
(1691508207.176114) can1 0CF00400#607D920219000F93
(1691508207.185887) can1 0CF00400#207D922019000F92
(1691508207.199784) can1 18FEF100#FF0000FCFF3D00CF
(1691508207.205888) can1 0CF00400#507D913F19000F92
(1691508207.225825) can1 0CF00400#307D914E19000F91
(1691508207.245945) can1 0CF00400#707D905A19000F91
(1691508207.246510) can1 10FF011C#0AE8311846985EC1
(1691508207.247069) can1 10FF021C#F05E0B0068EF0002
(1691508207.247629) can1 10FF031C#04BF1906428BD264
(1691508207.265884) can1 0CF00400#607D904E19000F91
(1691508207.285881) can1 0CF00400#607D903619000F91
(1691508207.299783) can1 18FEF100#FF0000FCFF3D00CF
(1691508207.305921) can1 0CF00400#207D910C19000F91
(1691508207.325878) can1 0CF00400#307D910F19000F91
(1691508207.345955) can1 10FF031C#045FA007428BD264
(1691508207.346508) can1 10FF011C#22E8311869985EC1
(1691508207.347069) can1 10FF021C#30D5090068EF0002
(1691508207.376050) can1 0CF00400#307D911019000F91
(1691508207.376619) can1 0CF00400#307D911019000F91
(1691508207.385953) can1 0CF00400#207D911419000F91
(1691508207.399797) can1 18FEF100#FF0000FCFF3D00CF
(1691508207.405922) can1 0CF00400#507D91F818000F92
(1691508207.425975) can1 0CF00400#707D91F618000F92
(1691508207.445987) can1 0CF00400#307D92C518000F92
(1691508207.446544) can1 10FF011C#36E8311886985EC1
(1691508207.447106) can1 10FF021C#3013080068EF0002
(1691508207.447659) can1 10FF031C#04FF2609428BD264
(1691508207.465921) can1 0CF00400#007D93C618000F93
(1691508207.485908) can1 0CF00400#507D92D418000F93
(1691508207.499764) can1 18FEF100#FF0000FCFF3D00CF
(1691508207.505980) can1 0CF00400#607D92D918000F93
(1691508207.525922) can1 0CF00400#507D920519000F93
(1691508207.545798) can1 10FF031C#049FAD0A428BD264
(1691508207.546355) can1 10FF011C#4EE8311895985EC1
(1691508207.546913) can1 10FF021C#A056090068EF0002
(1691508207.575900) can1 0CF00400#307D920219000F92
(1691508207.576467) can1 0CF00400#507D92FE18000F93
(1691508207.585919) can1 0CF00400#407D92FA18000F93
(1691508207.599786) can1 18FEF100#FF0000FCFF3D00CF
(1691508207.605933) can1 0CF00400#107D93C918000F93
(1691508207.625890) can1 0CF00400#107D93EB18000F93
(1691508207.646029) can1 0CF00400#607D920819000F93
(1691508207.646570) can1 10FF011C#6DE83118AE985EC1
(1691508207.647139) can1 10FF021C#105C0C0068EF0002
(1691508207.647691) can1 10FF031C#043F340C428BD264
(1691508207.665933) can1 0CF00400#307D921519000F92
(1691508207.685927) can1 0CF00400#007D923C19000F92
(1691508207.699793) can1 18FEF100#FF0000FCFF3D00CF
(1691508207.705935) can1 0CF00400#407D914D19000F91
(1691508207.725932) can1 0CF00400#307D914A19000F91
(1691508207.746015) can1 0CF00400#507D911E19000F92
(1691508207.746583) can1 10FF031C#04DFBA0D428BD264
(1691508207.747128) can1 10FF011C#78E83118BC985EC1
(1691508207.747692) can1 10FF021C#E0CC070068EF0002
(1691508207.776686) can1 0CF00400#707D911719000F92
(1691508207.785941) can1 0CF00400#507D911919000F92
(1691508207.800427) can1 18FEF100#FF0000FCFF3D00CF
(1691508207.805939) can1 0CF00400#307D912719000F91
(1691508207.825907) can1 0CF00400#207D913119000F91
(1691508207.846068) can1 0CF00400#107D911F19000F91
(1691508207.851185) can1 10FF031C#0480410F428BD264
(1691508207.851731) can1 10FF011C#8EE83118DA985EC1
(1691508207.852288) can1 10FF021C#508C050068EF0002
(1691508207.865953) can1 0CF00400#507D910D19000F92
(1691508207.886002) can1 0CF00400#507D91F418000F92
(1691508207.899819) can1 18FEF100#FF0000FCFF3D00CF
(1691508207.905964) can1 0CF00400#407D92B818000F93
(1691508207.925955) can1 0CF00400#507D92D518000F93
(1691508207.946692) can1 10FF031C#04DF8501438BD264
(1691508207.947239) can1 10FF011C#A5E83118F8985EC1
(1691508207.947802) can1 10FF021C#A010040068EF0002
(1691508207.976777) can1 0CF00400#507D92E118000F93
(1691508207.977341) can1 0CF00400#407D92F418000F92
(1691508207.985972) can1 0CF00400#207D920F19000F92
(1691508207.999870) can1 18FEF100#FF0000FCFF3D00CF
(1691508208.006075) can1 0CF00400#407D92FC18000F93
(1691508208.025979) can1 0CF00400#607D920D19000F93
(1691508208.046054) can1 0CF00400#707D92DD18000F93
(1691508208.046610) can1 10FF011C#C7E8311824995EC1
(1691508208.047178) can1 10FF021C#2005080068EF0002
(1691508208.047758) can1 10FF031C#04800C03438BD264
(1691508208.065974) can1 0CF00400#407D93DA18000F94
(1691508208.085981) can1 0CF00400#207D93EE18000F93
(1691508208.099898) can1 18FEF100#FF0000FCFF3D00CF
(1691508208.106009) can1 0CF00400#007D93F918000F93
(1691508208.125992) can1 0CF00400#007D931919000F93
(1691508208.146075) can1 0CF00400#507D922319000F93
(1691508208.146675) can1 10FF031C#04209304438BD264
(1691508208.147222) can1 10FF011C#E6E831184C995EC1
(1691508208.147778) can1 10FF021C#30970B0068EF0002
(1691508208.176770) can1 0CF00400#607D921919000F93
(1691508208.186016) can1 0CF00400#407D921319000F93
(1691508208.199905) can1 18FEF100#FF0000FCFF3D00CF
(1691508208.206028) can1 0CF00400#607D920319000F93
(1691508208.226009) can1 0CF00400#307D921D19000F92
(1691508208.246098) can1 0CF00400#707D913C19000F92
(1691508208.246678) can1 10FF031C#04C01906438BD264
(1691508208.247226) can1 10FF011C#06E9311873995EC1
(1691508208.247794) can1 10FF021C#400A100068EF0002
(1691508208.266034) can1 0CF00400#107D915519000F91
(1691508208.286035) can1 0CF00400#407D906919000F91
(1691508208.299928) can1 18FEF100#FF0000FCFF3D00CF
(1691508208.306067) can1 0CF00400#307D906419000F90
(1691508208.325992) can1 0CF00400#207D906619000F90
(1691508208.346131) can1 0CF00400#407D902119000F90
(1691508208.347081) can1 10FF031C#0360A007438BD264
(1691508208.377131) can1 0CF00400#007D911D19000F91
(1691508208.386093) can1 0CF00400#607D901B19000F91
(1691508208.399909) can1 18FEF100#FF0000FCFF3D00CF
(1691508208.406028) can1 0CF00400#007D910719000F91
(1691508208.426046) can1 0CF00400#107D911019000F91
(1691508208.446142) can1 0CF00400#107D91FC18000F91
(1691508208.446776) can1 10FF031C#03002709438BD264
(1691508208.466037) can1 0CF00400#407D91EF18000F92
(1691508208.486050) can1 0CF00400#507D91D118000F92
(1691508208.499950) can1 18FEF100#FF0000FCFF3D00CF
(1691508208.506072) can1 0CF00400#507D92A318000F93
(1691508208.526062) can1 0CF00400#507D92BE18000F93
(1691508208.545962) can1 10FF031C#03A0AD0A438BD264
(1691508208.546518) can1 0CF00400#407D92D518000F92
(1691508208.566083) can1 0CF00400#307D92E818000F92
(1691508208.586083) can1 0CF00400#107D920719000F92
(1691508208.599965) can1 18FEF100#FF0000FCFF3D00CF
(1691508208.606086) can1 0CF00400#107D920219000F92
(1691508208.626066) can1 0CF00400#207D920B19000F92
(1691508208.646157) can1 0CF00400#307D92E118000F92
(1691508208.646710) can1 10FF031C#0340340C438BD264
(1691508208.676758) can1 0CF00400#707D92E218000F93
(1691508208.686085) can1 0CF00400#407D92F318000F93
(1691508208.699974) can1 18FEF100#FF0000FCFF3D00CF
(1691508208.706065) can1 0CF00400#307D921519000F92
(1691508208.726074) can1 0CF00400#007D922D19000F92
(1691508208.746162) can1 0CF00400#607D912719000F92
(1691508208.746718) can1 10FF031C#03E0BA0D438BD264
(1691508208.766029) can1 0CF00400#607D912A19000F92
(1691508208.786065) can1 0CF00400#407D911F19000F91
(1691508208.800555) can1 18FEF100#FF0000FCFF3D00CF
(1691508208.806088) can1 0CF00400#007D92FA18000F92
(1691508208.826062) can1 0CF00400#507D912219000F92
(1691508208.846192) can1 0CF00400#307D911C19000F91
(1691508208.851220) can1 10FF031C#0381410F438BD264
(1691508208.881275) can1 0CF00400#307D911B19000F91
(1691508208.886121) can1 0CF00400#007D912D19000F91
(1691508208.899958) can1 18FEF100#FF0000FCFF3D00CF
(1691508208.906095) can1 0CF00400#207D910B19000F91
(1691508208.926108) can1 0CF00400#307D911119000F91
(1691508208.946517) can1 10FF031C#03E08501448BD264
(1691508208.947073) can1 0CF00400#407D91D518000F92
(1691508208.966117) can1 0CF00400#107D92DA18000F92
(1691508208.986153) can1 0CF00400#707D91E418000F92
(1691508209.000001) can1 18FEF100#FF0000FCFF3D00CF
(1691508209.006442) can1 0CF00400#707D91EB18000F92
(1691508209.026103) can1 0CF00400#707D910419000F92
(1691508209.046079) can1 10FF031C#03800C03448BD264
(1691508209.046636) can1 0CF00400#707D910519000F92
(1691508209.066088) can1 0CF00400#107D92FA18000F92
(1691508209.086111) can1 0CF00400#107D92EA18000F92
(1691508209.100033) can1 18FEF100#FF0000FCFF3D00CF
(1691508209.106153) can1 0CF00400#007D93BD18000F93
(1691508209.126132) can1 0CF00400#007D93D418000F93
(1691508209.146221) can1 0CF00400#707D92EE18000F93
(1691508209.146773) can1 10FF031C#03209304448BD264
(1691508209.176679) can1 0CF00400#507D92FA18000F93
(1691508209.186182) can1 0CF00400#507D920B19000F93
(1691508209.200029) can1 18FEF100#FF0000FCFF3D00CF
(1691508209.206150) can1 0CF00400#507D920A19000F93
(1691508209.226122) can1 0CF00400#507D921819000F93
(1691508209.246223) can1 0CF00400#707D92E418000F93
(1691508209.246780) can1 10FF031C#03C01906448BD264
(1691508209.266183) can1 0CF00400#107D93FA18000F93
(1691508209.286187) can1 0CF00400#307D921719000F92
(1691508209.300056) can1 18FEF100#FF0000FCFF3D00CF
(1691508209.306194) can1 0CF00400#107D922419000F92
(1691508209.326105) can1 0CF00400#507D915919000F92
(1691508209.346283) can1 0CF00400#107D914F19000F91
(1691508209.346836) can1 10FF031C#0360A007448BD264
(1691508209.376518) can1 0CF00400#207D914519000F91
(1691508209.386237) can1 0CF00400#007D913619000F91
(1691508209.400079) can1 18FEF100#FF0000FCFF3D00CF
(1691508209.406326) can1 0CF00400#407D910719000F92
(1691508209.426174) can1 0CF00400#307D911719000F91
(1691508209.446279) can1 0CF00400#107D912019000F91
(1691508209.446831) can1 10FF031C#03002709448BD264
(1691508209.466194) can1 0CF00400#707D902019000F91
(1691508209.486169) can1 0CF00400#707D902A19000F91
(1691508209.500079) can1 18FEF100#FF0000FCFF3D00CF
(1691508209.506561) can1 0CF00400#007D911519000F91
(1691508209.526208) can1 0CF00400#207D911119000F91
(1691508209.546288) can1 0CF00400#407D91E018000F92
(1691508209.546833) can1 10FF031C#03A0AD0A448BD264
(1691508209.576579) can1 0CF00400#007D92E518000F92
(1691508209.586218) can1 0CF00400#707D91ED18000F92
(1691508209.600106) can1 18FEF100#FF0000FCFF3D00CF
(1691508209.606228) can1 0CF00400#707D91F018000F92
(1691508209.626228) can1 0CF00400#007D92FE18000F92
(1691508209.646312) can1 0CF00400#007D92EF18000F92
(1691508209.646860) can1 10FF031C#0340340C448BD264
(1691508209.666218) can1 0CF00400#407D92E618000F92
(1691508209.686228) can1 0CF00400#407D92CE18000F92
(1691508209.700067) can1 18FEF100#FF0000FCFF3D00CF
(1691508209.706223) can1 0CF00400#307D93B018000F93
(1691508209.726260) can1 0CF00400#007D93D818000F93
(1691508209.746216) can1 10FF031C#03E0BA0D448BD264
(1691508209.746778) can1 0CF00400#707D92E018000F93
(1691508209.766237) can1 0CF00400#507D92FE18000F93
(1691508209.786275) can1 0CF00400#107D922519000F92
(1691508209.800642) can1 18FEF100#FF0000FCFF3D00CF
(1691508209.806234) can1 0CF00400#207D921119000F92
(1691508209.826245) can1 0CF00400#207D923419000F92
(1691508209.846377) can1 0CF00400#107D920119000F92
(1691508209.851151) can1 10FF031C#0381410F448BD264
(1691508209.881213) can1 0CF00400#307D920919000F92
(1691508209.886267) can1 0CF00400#707D912119000F92
(1691508209.900141) can1 18FEF100#FF0000FCFF3D00CF
(1691508209.906242) can1 0CF00400#407D913219000F92
(1691508209.926248) can1 0CF00400#207D914519000F91
(1691508209.946515) can1 0CF00400#607D904619000F91
(1691508209.947070) can1 10FF031C#03E08501458BD264
(1691508209.966302) can1 0CF00400#607D904019000F91
(1691508209.986268) can1 0CF00400#507D902419000F91
(1691508210.000116) can1 18FEF100#FF0000FCFF3D00CF
(1691508210.006340) can1 0CF00400#307D91FD18000F91
(1691508210.026282) can1 0CF00400#107D910E19000F91
(1691508210.046358) can1 0CF00400#707D901F19000F91
(1691508210.046910) can1 10FF031C#03800C03458BD264
(1691508210.066275) can1 0CF00400#607D902419000F91
(1691508210.086265) can1 0CF00400#507D902C19000F91
(1691508210.100174) can1 18FEF100#FF0000FCFF3D00CF
(1691508210.106297) can1 0CF00400#007D910C19000F91
(1691508210.126299) can1 0CF00400#307D910319000F91
(1691508210.146408) can1 0CF00400#607D91BE18000F92
(1691508210.146955) can1 10FF031C#03209304458BD264
(1691508210.176664) can1 0CF00400#407D92C518000F92
(1691508210.186316) can1 0CF00400#307D92C618000F92
(1691508210.200168) can1 18FEF100#FF0000FCFF3D00CF
(1691508210.206273) can1 0CF00400#407D92CC18000F93
(1691508210.226287) can1 0CF00400#307D92F018000F92
(1691508210.246306) can1 10FF031C#03C01906458BD264
(1691508210.246865) can1 0CF00400#307D92E218000F92
(1691508210.266273) can1 0CF00400#507D92E618000F93
(1691508210.286322) can1 0CF00400#307D92E218000F92
(1691508210.300190) can1 18FEF100#FF0000FCFF3D00CF
(1691508210.306324) can1 0CF00400#207D93B918000F93
(1691508210.326309) can1 0CF00400#107D93E418000F93
(1691508210.346405) can1 0CF00400#607D92F718000F93
(1691508210.346964) can1 10FF031C#0360A007458BD264
(1691508210.376672) can1 0CF00400#407D920319000F92
(1691508210.386399) can1 0CF00400#107D922C19000F92
(1691508210.400197) can1 18FEF100#FF0000FCFF3D00CF
(1691508210.406300) can1 0CF00400#707D912A19000F92
(1691508210.426306) can1 0CF00400#707D913219000F92
(1691508210.446224) can1 10FF031C#03002709458BD264
(1691508210.446786) can1 0CF00400#007D920419000F92
(1691508210.466287) can1 0CF00400#007D921519000F92
(1691508210.486312) can1 0CF00400#407D912519000F92
(1691508210.500172) can1 18FEF100#FF0000FCFF3D00CF
(1691508210.506379) can1 0CF00400#207D913919000F91
(1691508210.526353) can1 0CF00400#707D905419000F91
(1691508210.546437) can1 0CF00400#407D904719000F90
(1691508210.546985) can1 10FF031C#03A0AD0A458BD264
(1691508210.576622) can1 0CF00400#607D903E19000F91
(1691508210.586326) can1 0CF00400#507D902219000F91
(1691508210.600235) can1 18FEF100#FF0000FCFF3D00CF
(1691508210.606362) can1 0CF00400#307D91F418000F91
(1691508210.626346) can1 0CF00400#307D910619000F91
(1691508210.646439) can1 0CF00400#307D910319000F91
(1691508210.646985) can1 10FF031C#0340340C458BD264
(1691508210.666370) can1 0CF00400#407D910219000F91
(1691508210.686346) can1 0CF00400#407D910419000F91
(1691508210.700235) can1 18FEF100#FF0000FCFF3D00CF
(1691508210.706361) can1 0CF00400#707D91EC18000F92
(1691508210.726373) can1 0CF00400#707D91F818000F92
(1691508210.746453) can1 0CF00400#307D92B318000F92
(1691508210.747004) can1 10FF031C#03E0BA0D458BD264
(1691508210.776795) can1 0CF00400#007D93BE18000F93
(1691508210.786370) can1 0CF00400#607D92D418000F93
(1691508210.800790) can1 18FEF100#FF0000FCFF3D00CF
(1691508210.806361) can1 0CF00400#507D92E118000F93
(1691508210.826419) can1 0CF00400#407D920819000F93
(1691508210.846487) can1 0CF00400#207D920D19000F92
(1691508210.851340) can1 10FF031C#0381410F458BD264
(1691508210.866379) can1 0CF00400#407D920919000F92
(1691508210.886411) can1 0CF00400#407D92FE18000F92
(1691508210.900234) can1 18FEF100#FF0000FCFF3D00CF
(1691508210.906375) can1 0CF00400#707D92E918000F93
(1691508210.926435) can1 0CF00400#507D92FD18000F93
(1691508210.946159) can1 10FF031C#03E08501468BD264
(1691508210.946720) can1 0CF00400#307D921319000F92
(1691508210.966383) can1 0CF00400#707D912B19000F92
(1691508210.986418) can1 0CF00400#307D914019000F91
(1691508211.000286) can1 18FEF100#FF0000FCFF3D00CF
(1691508211.006464) can1 0CF00400#207D913619000F91
(1691508211.026450) can1 0CF00400#007D914519000F91
(1691508211.046505) can1 0CF00400#207D910819000F91
(1691508211.047058) can1 10FF031C#03800C03468BD264
(1691508211.076903) can1 0CF00400#307D911B19000F91
(1691508211.086408) can1 0CF00400#707D902319000F91
(1691508211.100262) can1 18FEF100#FF0000FCFF3D00CF
(1691508211.106427) can1 0CF00400#107D911C19000F91
(1691508211.126439) can1 0CF00400#707D903219000F91
(1691508211.146527) can1 0CF00400#707D901B19000F91
(1691508211.147079) can1 10FF031C#03209304468BD264
(1691508211.166437) can1 0CF00400#207D910B19000F91
(1691508211.186448) can1 0CF00400#507D91DD18000F92
(1691508211.200286) can1 18FEF100#FF0000FCFF3D00CF
(1691508211.206447) can1 0CF00400#507D92B618000F93
(1691508211.226455) can1 0CF00400#407D92C818000F93
(1691508211.246463) can1 0CF00400#407D92D718000F92
(1691508211.247013) can1 10FF031C#03C01906468BD264
(1691508211.276744) can1 0CF00400#407D92DF18000F92
(1691508211.286459) can1 0CF00400#207D920019000F92
(1691508211.300312) can1 18FEF100#FF0000FCFF3D00CF
(1691508211.306466) can1 0CF00400#307D92F718000F92
(1691508211.326457) can1 0CF00400#407D920219000F93
(1691508211.346522) can1 0CF00400#607D92D918000F93
(1691508211.347075) can1 10FF031C#0360A007468BD264
(1691508211.366487) can1 0CF00400#107D93EB18000F93
(1691508211.386483) can1 0CF00400#607D920219000F93
(1691508211.400347) can1 18FEF100#FF0000FCFF3D00CF
(1691508211.406457) can1 0CF00400#407D922119000F93
(1691508211.426495) can1 0CF00400#207D923419000F92
(1691508211.446203) can1 10FF031C#03002709468BD264
(1691508211.446758) can1 0CF00400#007D922E19000F92
(1691508211.466446) can1 0CF00400#707D913719000F92
(1691508211.486454) can1 0CF00400#407D912019000F92
(1691508211.500310) can1 18FEF100#FF0000FCFF3D00CF
(1691508211.506524) can1 0CF00400#107D920A19000F92
(1691508211.526501) can1 0CF00400#407D913019000F92
(1691508211.546333) can1 10FF031C#03A0AD0A468BD264
(1691508211.576386) can1 0CF00400#107D913419000F91
(1691508211.576946) can1 0CF00400#607D904F19000F91
(1691508211.586459) can1 0CF00400#107D906119000F90
(1691508211.600346) can1 18FEF100#FF0000FCFF3D00CF
(1691508211.606534) can1 0CF00400#307D904819000F90
(1691508211.626540) can1 0CF00400#307D904219000F90
(1691508211.646554) can1 0CF00400#607D900219000F91
(1691508211.647106) can1 10FF011C#FCE93118AC975EC1
(1691508211.647670) can1 10FF021C#707A150068EF0002
(1691508211.648230) can1 10FF031C#0440340C468BD264
(1691508211.666493) can1 0CF00400#107D910519000F91
(1691508211.686496) can1 0CF00400#107D910319000F91
(1691508211.700335) can1 18FEF100#FF0000FCFF3D00CF
(1691508211.706536) can1 0CF00400#107D91FC18000F91
(1691508211.726532) can1 0CF00400#107D910519000F91
(1691508211.746289) can1 10FF031C#03E0BA0D468BD264
(1691508211.776340) can1 0CF00400#307D91EF18000F91
(1691508211.776880) can1 0CF00400#507D91E318000F92
(1691508211.786495) can1 0CF00400#007D92C318000F92
(1691508211.800971) can1 18FEF100#FF0000FCFF3D00CF
(1691508211.806492) can1 0CF00400#607D92A918000F93
(1691508211.826523) can1 0CF00400#607D92BB18000F93
(1691508211.846581) can1 0CF00400#407D92DC18000F92
(1691508211.851729) can1 10FF031C#0481410F468BD264
(1691508211.852272) can1 10FF011C#EEE93118A7975EC1
(1691508211.852836) can1 10FF021C#40D4180068EF0002
(1691508211.866537) can1 0CF00400#207D92F018000F92
(1691508211.886537) can1 0CF00400#107D920419000F92
(1691508211.900411) can1 18FEF100#FF0000FCFF3D00CF
(1691508211.906530) can1 0CF00400#207D920519000F92
(1691508211.926552) can1 0CF00400#207D920219000F92
(1691508211.946159) can1 10FF031C#04E08501478BD264
(1691508211.946704) can1 10FF011C#EBE93118AC975EC1
(1691508211.947279) can1 10FF021C#50A41A0068EF0002
(1691508211.976253) can1 0CF00400#507D92C318000F93
(1691508211.976820) can1 0CF00400#707D92E818000F93
(1691508211.986540) can1 0CF00400#307D92FB18000F92
(1691508212.000384) can1 18FEF100#FF0000FCFF3D00CF
(1691508212.006618) can1 0CF00400#307D92FF18000F92
(1691508212.026570) can1 0CF00400#107D922C19000F92
(1691508212.046587) can1 0CF00400#607D912019000F92
(1691508212.047136) can1 10FF011C#FFE93118B4975EC1
(1691508212.047699) can1 10FF021C#40D4180068EF0002
(1691508212.048273) can1 10FF031C#04800C03478BD264
(1691508212.066533) can1 0CF00400#607D912D19000F92
(1691508212.086543) can1 0CF00400#307D912019000F91
(1691508212.100439) can1 18FEF100#FF0000FCFF3D00CF
(1691508212.106538) can1 0CF00400#007D920719000F92
(1691508212.126568) can1 0CF00400#407D912019000F92
(1691508212.146611) can1 0CF00400#207D913019000F91
(1691508212.147162) can1 10FF011C#15EA3118B9975EC1
(1691508212.147729) can1 10FF021C#3023160068EF0002
(1691508212.148281) can1 10FF031C#04219304478BD264
(1691508212.176801) can1 0CF00400#707D903519000F91
(1691508212.186604) can1 0CF00400#607D903E19000F91
(1691508212.200405) can1 18FEF100#FF0000FCFF3D00CF
(1691508212.206608) can1 0CF00400#707D902A19000F91
(1691508212.226585) can1 0CF00400#007D911B19000F91
(1691508212.246626) can1 0CF00400#407D91D618000F91
(1691508212.247173) can1 10FF011C#25EA3118B9975EC1
(1691508212.247734) can1 10FF021C#80C6130068EF0002
(1691508212.248285) can1 10FF031C#04C11906478BD264
(1691508212.266569) can1 0CF00400#007D92DA18000F92
(1691508212.286590) can1 0CF00400#707D91E418000F92
(1691508212.300428) can1 18FEF100#FF0000FCFF3D00CF
(1691508212.306624) can1 0CF00400#707D91EC18000F92
(1691508212.326612) can1 0CF00400#707D91FC18000F92
(1691508212.346597) can1 10FF031C#0461A007478BD264
(1691508212.347141) can1 10FF011C#36EA3118B8975EC1
(1691508212.347700) can1 10FF021C#8023110068EF0002
(1691508212.376695) can1 0CF00400#707D91EC18000F92
(1691508212.377262) can1 0CF00400#207D92EE18000F92
(1691508212.386606) can1 0CF00400#307D92CF18000F92
(1691508212.400498) can1 18FEF100#FF0000FCFF3D00CF
(1691508212.406585) can1 0CF00400#207D93BB18000F93
(1691508212.426596) can1 0CF00400#707D92DD18000F93
(1691508212.446544) can1 10FF031C#04012709478BD264
(1691508212.447099) can1 0CF00400#607D92E218000F93
(1691508212.447643) can1 10FF011C#48EA3118B0975EC1
(1691508212.448211) can1 10FF021C#70720E0068EF0002
(1691508212.466663) can1 0CF00400#507D920419000F93
(1691508212.486603) can1 0CF00400#207D922019000F92
(1691508212.500501) can1 18FEF100#FF0000FCFF3D00CF
(1691508212.506646) can1 0CF00400#407D920C19000F92
(1691508212.526655) can1 0CF00400#307D922019000F92
(1691508212.546639) can1 0CF00400#407D92EA18000F93
(1691508212.547182) can1 10FF011C#57EA3118AB975EC1
(1691508212.547748) can1 10FF021C#30590D0068EF0002
(1691508212.548290) can1 10FF031C#04A1AD0A478BD264
(1691508212.576856) can1 0CF00400#407D920319000F93
(1691508212.586596) can1 0CF00400#007D922019000F92
(1691508212.600514) can1 18FEF100#FF0000FCFF3D00CF
(1691508212.606553) can1 0CF00400#507D913219000F92
(1691508212.626651) can1 0CF00400#207D914D19000F91
(1691508212.646618) can1 10FF031C#0441340C478BD264
(1691508212.647182) can1 0CF00400#607D905019000F91
(1691508212.647725) can1 10FF011C#5DEA3118A8975EC1
(1691508212.648285) can1 10FF021C#204B0D0068EF0002
(1691508212.666641) can1 0CF00400#507D904719000F91
(1691508212.687207) can1 0CF00400#607D901C19000F91
(1691508212.700514) can1 18FEF100#FF0000FCFF3D00CF
(1691508212.706649) can1 0CF00400#307D910019000F91
(1691508212.726660) can1 0CF00400#207D910719000F91
(1691508212.746626) can1 10FF031C#04E1BA0D478BD264
(1691508212.747169) can1 10FF011C#5FEA3118AE975EC1
(1691508212.747734) can1 10FF021C#002F0D0068EF0002
(1691508212.776727) can1 0CF00400#107D910319000F91
(1691508212.777291) can1 0CF00400#207D910019000F91
(1691508212.787202) can1 0CF00400#207D910219000F91
(1691508212.801099) can1 18FEF100#FF0000FCFF3D00CF
(1691508212.806635) can1 0CF00400#507D91ED18000F92
(1691508212.826663) can1 0CF00400#507D91EA18000F92
(1691508212.846732) can1 0CF00400#207D92A718000F92
(1691508212.851789) can1 10FF031C#0482410F478BD264
(1691508212.852324) can1 10FF011C#74EA3118B5975EC1
(1691508212.852883) can1 10FF021C#60830D0068EF0002
(1691508212.866623) can1 0CF00400#507D92C718000F93
(1691508212.887228) can1 0CF00400#307D92DB18000F92
(1691508212.900515) can1 18FEF100#FF0000FCFF3D00CF
(1691508212.906671) can1 0CF00400#207D92F218000F92
(1691508212.926661) can1 0CF00400#707D911E19000F92
(1691508212.946228) can1 10FF031C#04E18501488BD264
(1691508212.946776) can1 10FF011C#86EA3118B9975EC1
(1691508212.947351) can1 10FF021C#00100E0068EF0002
(1691508212.947919) can1 0CF00400#707D910419000F92
(1691508212.966653) can1 0CF00400#107D921119000F92
(1691508212.987221) can1 0CF00400#007D92F418000F92
(1691508213.000514) can1 18FEF100#FF0000FCFF3D00CF
(1691508213.006721) can1 0CF00400#707D92D118000F93
(1691508213.026686) can1 0CF00400#507D92E818000F93
(1691508213.046670) can1 10FF031C#04810C03488BD264
(1691508213.047211) can1 10FF011C#94EA3118BD975EC1
(1691508213.047774) can1 10FF021C#60640E0068EF0002
(1691508213.076768) can1 0CF00400#207D92FD18000F92
(1691508213.077328) can1 0CF00400#007D921019000F92
(1691508213.087197) can1 0CF00400#507D912F19000F92
(1691508213.100547) can1 18FEF100#FF0000FCFF3D00CF
(1691508213.106709) can1 0CF00400#407D912A19000F92
(1691508213.126683) can1 0CF00400#407D912519000F91
(1691508213.146618) can1 10FF031C#04219304488BD264
(1691508213.147180) can1 0CF00400#507D910019000F92
(1691508213.147723) can1 10FF011C#A1EA3118C3975EC1
(1691508213.148287) can1 10FF021C#A09C0E0068EF0002
(1691508213.166668) can1 0CF00400#607D910E19000F92
(1691508213.187207) can1 0CF00400#407D911419000F92
(1691508213.200589) can1 18FEF100#FF0000FCFF3D00CF
(1691508213.206726) can1 0CF00400#307D911B19000F91
(1691508213.226707) can1 0CF00400#207D912D19000F91
(1691508213.246634) can1 10FF031C#04C11906488BD264
(1691508213.247179) can1 10FF011C#ABEA3118C6975EC1
(1691508213.247743) can1 10FF021C#301B0F0068EF0002
(1691508213.276727) can1 0CF00400#207D911419000F91
(1691508213.277285) can1 0CF00400#407D910E19000F92
(1691508213.287213) can1 0CF00400#507D91E918000F92
(1691508213.300599) can1 18FEF100#FF0000FCFF3D00CF
(1691508213.306745) can1 0CF00400#307D92D318000F92
(1691508213.326709) can1 0CF00400#707D91EF18000F92
(1691508213.346798) can1 0CF00400#607D91F318000F92
(1691508213.347339) can1 10FF011C#B4EA3118CD975EC1
(1691508213.347902) can1 10FF021C#A09C0E0068EF0002
(1691508213.348460) can1 10FF031C#0561A007488BD264
(1691508213.366722) can1 0CF00400#507D910F19000F92
(1691508213.387217) can1 0CF00400#307D911C19000F91
(1691508213.400618) can1 18FEF100#FF0000FCFF3D00CF
(1691508213.406753) can1 0CF00400#507D911419000F92
(1691508213.426753) can1 0CF00400#507D911519000F92
(1691508213.446822) can1 0CF00400#107D92CE18000F92
(1691508213.448307) can1 10FF031C#05012709488BD264
(1691508213.448850) can1 10FF011C#BCEA3118CD975EC1
(1691508213.449410) can1 10FF021C#E0F30D0068EF0002
(1691508213.478406) can1 0CF00400#407D92E318000F92
(1691508213.487228) can1 0CF00400#207D92F418000F92
(1691508213.500622) can1 18FEF100#FF0000FCFF3D00CF
(1691508213.506853) can1 0CF00400#107D92FA18000F92
(1691508213.526771) can1 0CF00400#007D920D19000F92
(1691508213.546820) can1 0CF00400#007D920819000F92
(1691508213.547369) can1 10FF011C#C0EA3118CF975EC1
(1691508213.547941) can1 10FF021C#105C0C0068EF0002
(1691508213.548490) can1 10FF031C#05A1AD0A488BD264
(1691508213.566774) can1 0CF00400#107D920519000F92
(1691508213.587227) can1 0CF00400#107D92EE18000F92
(1691508213.600613) can1 18FEF100#FF0000FCFF3D00CF
(1691508213.606738) can1 0CF00400#507D92E318000F93
(1691508213.626779) can1 0CF00400#207D92F418000F92
(1691508213.646789) can1 0CF00400#007D921B19000F92
(1691508213.647329) can1 10FF011C#BCEA3118DD975EC1
(1691508213.647894) can1 10FF021C#107B0B0068EF0002
(1691508213.648450) can1 10FF031C#0541340C488BD264
(1691508213.666737) can1 0CF00400#407D912F19000F92
(1691508213.687215) can1 0CF00400#307D913519000F91
(1691508213.701231) can1 18FEF100#FF0000FCFF3D00CF
(1691508213.706755) can1 0CF00400#507D912719000F92
(1691508213.726763) can1 0CF00400#407D912419000F92
(1691508213.746816) can1 0CF00400#107D92E118000F92
(1691508213.747375) can1 10FF011C#B2EA3118E7975EC1
(1691508213.747927) can1 10FF021C#30590D0068EF0002
(1691508213.748483) can1 10FF031C#05E1BA0D488BD264
(1691508213.777168) can1 0CF00400#207D92F418000F92
(1691508213.787248) can1 0CF00400#007D92FC18000F92
(1691508213.801240) can1 18FEF100#FF0000FCFF3D00CF
(1691508213.806782) can1 0CF00400#007D920519000F92
(1691508213.826758) can1 0CF00400#607D912519000F92
(1691508213.846845) can1 0CF00400#507D911519000F92
(1691508213.851948) can1 10FF031C#0582410F488BD264
(1691508213.852496) can1 10FF011C#A3EA3118EC975EC1
(1691508213.853052) can1 10FF021C#8042100068EF0002
(1691508213.866744) can1 0CF00400#607D911F19000F92
(1691508213.887226) can1 0CF00400#607D91FF18000F92
(1691508213.900649) can1 18FEF100#FF0000FCFF3D00CF
(1691508213.906817) can1 0CF00400#307D92EB18000F92
(1691508213.926766) can1 0CF00400#707D910319000F92
(1691508213.946558) can1 10FF031C#05E18501498BD264
(1691508213.947103) can1 10FF011C#9CEA3118F7975EC1
(1691508213.947666) can1 10FF021C#707A150068EF0002
(1691508213.976647) can1 0CF00400#707D910919000F92
(1691508213.977208) can1 0CF00400#707D911519000F92
(1691508213.987221) can1 0CF00400#407D912919000F92
(1691508214.000657) can1 18FEF100#FF0000FCFF3D00CF
(1691508214.006861) can1 0CF00400#607D911419000F92
(1691508214.026824) can1 0CF00400#707D910419000F92
(1691508214.046876) can1 0CF00400#307D92CC18000F92
(1691508214.047449) can1 10FF011C#9AEA311803985EC1
(1691508214.047996) can1 10FF021C#40D4180068EF0002
(1691508214.048556) can1 10FF031C#05810C03498BD264
(1691508214.066766) can1 0CF00400#407D92DC18000F93
(1691508214.087242) can1 0CF00400#307D92EB18000F92
(1691508214.100675) can1 18FEF100#FF0000FCFF3D00CF
(1691508214.106842) can1 0CF00400#107D92FF18000F92
(1691508214.126807) can1 0CF00400#007D921019000F92
(1691508214.146869) can1 0CF00400#007D920819000F92
(1691508214.147418) can1 10FF011C#A0EA311808985EC1
(1691508214.147981) can1 10FF021C#9039180068EF0002
(1691508214.148533) can1 10FF031C#05219304498BD264
(1691508214.177269) can1 0CF00400#007D921419000F92
(1691508214.187236) can1 0CF00400#007D92EB18000F92
(1691508214.200693) can1 18FEF100#FF0000FCFF3D00CF
(1691508214.206867) can1 0CF00400#607D92DB18000F93
(1691508214.227039) can1 0CF00400#207D92FF18000F92
(1691508214.246896) can1 0CF00400#107D920019000F92
(1691508214.247445) can1 10FF011C#B1EA311808985EC1
(1691508214.248009) can1 10FF021C#4050150068EF0002
(1691508214.248570) can1 10FF031C#05C11906498BD264
(1691508214.266780) can1 0CF00400#107D921519000F92
(1691508214.287219) can1 0CF00400#607D912119000F92
(1691508214.300701) can1 18FEF100#FF0000FCFF3D00CF
(1691508214.306875) can1 0CF00400#007D921619000F92
(1691508214.327254) can1 0CF00400#007D921519000F92
(1691508214.346923) can1 0CF00400#407D92D618000F92
(1691508214.347467) can1 10FF011C#BDEA31180A985EC1
(1691508214.348039) can1 10FF021C#60AA130068EF0002
(1691508214.348586) can1 10FF031C#0561A007498BD264
(1691508214.377392) can1 0CF00400#607D92E618000F93
(1691508214.387251) can1 0CF00400#507D92F818000F93
(1691508214.400722) can1 18FEF100#FF0000FCFF3D00CF
(1691508214.406891) can1 0CF00400#307D920819000F92
(1691508214.426852) can1 0CF00400#207D922619000F92
(1691508214.446934) can1 0CF00400#007D922319000F92
(1691508214.447479) can1 10FF011C#C6EA311814985EC1
(1691508214.448041) can1 10FF021C#80A7140068EF0002
(1691508214.448598) can1 10FF031C#05012709498BD264
(1691508214.466886) can1 0CF00400#107D922219000F92
(1691508214.487252) can1 0CF00400#107D920819000F92
(1691508214.500716) can1 18FEF100#FF0000FCFF3D00CF
(1691508214.506928) can1 0CF00400#507D92F418000F93
(1691508214.526903) can1 0CF00400#307D92FA18000F92
(1691508214.546933) can1 0CF00400#207D920E19000F92
(1691508214.547476) can1 10FF011C#D9EA311816985EC1
(1691508214.548035) can1 10FF021C#E039130068EF0002
(1691508214.548583) can1 10FF031C#05A1AD0A498BD264
(1691508214.577204) can1 0CF00400#007D921F19000F92
(1691508214.587240) can1 0CF00400#607D912619000F92
(1691508214.600787) can1 18FEF100#FF0000FCFF3D00CF
(1691508214.606914) can1 0CF00400#707D912019000F92
(1691508214.626873) can1 0CF00400#607D911919000F92
(1691508214.646963) can1 0CF00400#107D92E218000F92
(1691508214.647500) can1 10FF011C#F7EA311815985EC1
(1691508214.648065) can1 10FF021C#60F0180068EF0002
(1691508214.648625) can1 10FF031C#0541340C498BD264
(1691508214.666888) can1 0CF00400#007D921019000F92
(1691508214.687237) can1 0CF00400#607D911A19000F92
(1691508214.701368) can1 18FEF100#FF0000FCFF3D00CF
(1691508214.706889) can1 0CF00400#507D912519000F92
(1691508214.726903) can1 0CF00400#007D914F19000F91
(1691508214.746956) can1 0CF00400#607D903B19000F91
(1691508214.747506) can1 10FF011C#10EB311818985EC1
(1691508214.748065) can1 10FF021C#205B1B0068EF0002
(1691508214.748618) can1 10FF031C#05E1BA0D498BD264
(1691508214.777267) can1 0CF00400#107D913819000F91
(1691508214.787262) can1 0CF00400#207D910019000F91
(1691508214.801334) can1 18FEF100#FF0000FCFF3D00CF
(1691508214.806922) can1 0CF00400#007D92EA18000F92
(1691508214.826899) can1 0CF00400#707D91EF18000F92
(1691508214.847012) can1 0CF00400#607D91F918000F92
(1691508214.852287) can1 10FF031C#0582410F498BD264
(1691508214.852848) can1 10FF011C#1DEB311825985EC1
(1691508214.853405) can1 10FF021C#201D1D0068EF0002
(1691508214.866910) can1 0CF00400#607D910319000F92
(1691508214.887246) can1 0CF00400#607D910719000F92
(1691508214.900785) can1 18FEF100#FF0000FCFF3D00CF
(1691508214.906918) can1 0CF00400#707D91F918000F92
(1691508214.926935) can1 0CF00400#707D91F518000F92
(1691508214.947337) can1 10FF031C#05E185014A8BD264
(1691508214.947887) can1 10FF011C#21EB311836985EC1
(1691508214.948451) can1 10FF021C#A08D1D0068EF0002
(1691508214.977434) can1 0CF00400#407D92BC18000F92
(1691508214.977992) can1 0CF00400#507D92D118000F93
(1691508214.987257) can1 0CF00400#307D92EA18000F92
(1691508215.000828) can1 18FEF100#FF0000FCFF3D00CF
(1691508215.007057) can1 0CF00400#107D92F918000F92
(1691508215.026946) can1 0CF00400#107D920A19000F92
(1691508215.046959) can1 10FF031C#05810C034A8BD264
(1691508215.047520) can1 0CF00400#007D920119000F92
(1691508215.048075) can1 10FF011C#39EB31183B985EC1
(1691508215.048639) can1 10FF021C#609B220068EF0002
(1691508215.066960) can1 0CF00400#107D920A19000F92
(1691508215.087269) can1 0CF00400#207D92E118000F92
(1691508215.100840) can1 18FEF100#FF0000FCFF3D00CF
(1691508215.106967) can1 0CF00400#707D92D918000F93
(1691508215.126953) can1 0CF00400#407D92EA18000F92
(1691508215.146864) can1 10FF031C#052193044A8BD264
(1691508215.147411) can1 10FF011C#58EB311839985EC1
(1691508215.147979) can1 10FF021C#D043280068EF0002
(1691508215.176960) can1 0CF00400#307D92F118000F92
(1691508215.177521) can1 0CF00400#207D921A19000F92
(1691508215.187244) can1 0CF00400#607D912A19000F92
(1691508215.200861) can1 18FEF100#FF0000FCFF3D00CF
(1691508215.207013) can1 0CF00400#007D921C19000F92
(1691508215.226955) can1 0CF00400#607D912C19000F92
(1691508215.246935) can1 10FF031C#05C119064A8BD264
(1691508215.247494) can1 0CF00400#107D92F518000F92
(1691508215.248050) can1 10FF011C#60EB311845985EC1
(1691508215.248617) can1 10FF021C#60C2280068EF0002
(1691508215.266962) can1 0CF00400#107D920419000F92
(1691508215.287245) can1 0CF00400#707D911219000F92
(1691508215.300832) can1 18FEF100#FF0000FCFF3D00CF
(1691508215.306984) can1 0CF00400#507D911D19000F92
(1691508215.326976) can1 0CF00400#207D913119000F91
(1691508215.346606) can1 10FF031C#0561A0074A8BD264
(1691508215.347165) can1 0CF00400#007D912F19000F91
(1691508215.347713) can1 10FF011C#66EB311852985EC1
(1691508215.348277) can1 10FF021C#702D260068EF0002
(1691508215.367017) can1 0CF00400#107D912819000F91
(1691508215.387284) can1 0CF00400#207D91FC18000F91
(1691508215.400853) can1 18FEF100#FF0000FCFF3D00CF
(1691508215.406995) can1 0CF00400#607D91F218000F92
(1691508215.427011) can1 0CF00400#307D91FA18000F91
(1691508215.447119) can1 0CF00400#307D910719000F91
(1691508215.450317) can1 10FF031C#050127094A8BD264
(1691508215.450863) can1 10FF011C#70EB311865985EC1
(1691508215.451417) can1 10FF021C#A09D2B0068EF0002
(1691508215.480433) can1 0CF00400#207D911219000F91
(1691508215.487267) can1 0CF00400#207D911519000F91
(1691508215.500902) can1 18FEF100#FF0000FCFF3D00CF
(1691508215.507047) can1 0CF00400#407D910119000F92
(1691508215.527021) can1 0CF00400#507D91EA18000F92
(1691508215.547089) can1 0CF00400#407D92AC18000F92
(1691508215.547634) can1 10FF011C#81EB311877985EC1
(1691508215.548193) can1 10FF021C#705C330068EF0002
(1691508215.548746) can1 10FF031C#05A1AD0A4A8BD264
(1691508215.566976) can1 0CF00400#507D92CB18000F93
(1691508215.587272) can1 0CF00400#407D92D418000F93
(1691508215.600908) can1 18FEF100#FF0000FCFF3D00CF
(1691508215.606992) can1 0CF00400#307D92E918000F92
(1691508215.627600) can1 0CF00400#107D920B19000F92
(1691508215.646975) can1 10FF031C#0541340C4A8BD264
(1691508215.647539) can1 0CF00400#107D92FB18000F92
(1691508215.648086) can1 10FF011C#86EB31188F985EC1
(1691508215.648647) can1 10FF021C#B056350068EF0002
(1691508215.667031) can1 0CF00400#107D921619000F92
(1691508215.687276) can1 0CF00400#007D92F418000F92
(1691508215.701504) can1 18FEF100#FF0000FCFF3D00CF
(1691508215.707020) can1 0CF00400#607D92E218000F93
(1691508215.727080) can1 0CF00400#207D92FD18000F92
(1691508215.746961) can1 10FF031C#05E1BA0D4A8BD264
(1691508215.747510) can1 10FF011C#88EB3118A8985EC1
(1691508215.748065) can1 10FF021C#9097320068EF0002
(1691508215.777053) can1 0CF00400#007D921219000F92
(1691508215.777606) can1 0CF00400#707D911E19000F92
(1691508215.787260) can1 0CF00400#507D912C19000F92
(1691508215.801474) can1 18FEF100#FF0000FCFF3D00CF
(1691508215.807030) can1 0CF00400#507D911F19000F92
(1691508215.827071) can1 0CF00400#407D911419000F92
(1691508215.847147) can1 0CF00400#707D91E418000F92
(1691508215.851060) can1 10FF031C#0583410F4A8BD264
(1691508215.851604) can1 10FF011C#91EB3118BA985EC1
(1691508215.852168) can1 10FF021C#707B320068EF0002
(1691508215.867028) can1 0CF00400#007D92F618000F92
(1691508215.887270) can1 0CF00400#607D910119000F92
(1691508215.900915) can1 18FEF100#FF0000FCFF3D00CF
(1691508215.907038) can1 0CF00400#607D910919000F92
(1691508215.927067) can1 0CF00400#507D911A19000F92
(1691508215.947147) can1 10FF031C#05E285014B8BD264
(1691508215.947692) can1 10FF011C#9AEB3118CF985EC1
(1691508215.948247) can1 10FF021C#B094330068EF0002
(1691508215.977260) can1 0CF00400#607D910119000F92
(1691508215.977806) can1 0CF00400#007D920219000F92
(1691508215.987276) can1 0CF00400#107D92DA18000F92
(1691508216.000930) can1 18FEF100#FF0000FCFF3D00CF
(1691508216.007162) can1 0CF00400#607D92D818000F93
(1691508216.027082) can1 0CF00400#207D92EA18000F92
(1691508216.047111) can1 10FF031C#05820C034B8BD264
(1691508216.047672) can1 0CF00400#107D92F318000F92
(1691508216.048222) can1 10FF011C#A7EB3118E1985EC1
(1691508216.048787) can1 10FF021C#A0A5320068EF0002
(1691508216.067027) can1 0CF00400#707D911719000F92
(1691508216.087279) can1 0CF00400#207D912919000F91
(1691508216.100936) can1 18FEF100#FF0000FCFF3D00CF
(1691508216.107100) can1 0CF00400#307D912519000F91
(1691508216.127128) can1 0CF00400#707D902919000F91
(1691508216.147151) can1 10FF031C#052293044B8BD264
(1691508216.147692) can1 10FF011C#B1EB3118F4985EC1
(1691508216.148259) can1 10FF021C#1065300068EF0002
(1691508216.177256) can1 0CF00400#307D91F418000F91
(1691508216.177816) can1 0CF00400#307D910D19000F91
(1691508216.187279) can1 0CF00400#007D911B19000F91
(1691508216.200984) can1 18FEF100#FF0000FCFF3D00CF
(1691508216.207126) can1 0CF00400#607D901F19000F91
(1691508216.227124) can1 0CF00400#507D903319000F91
(1691508216.247089) can1 10FF031C#05C219064B8BD264
(1691508216.247657) can1 0CF00400#407D902C19000F90
(1691508216.248207) can1 10FF011C#C8EB311802995EC1
(1691508216.248771) can1 10FF021C#80C7300068EF0002
(1691508216.267100) can1 0CF00400#607D901719000F91
(1691508216.287284) can1 0CF00400#207D91DD18000F91
(1691508216.301012) can1 18FEF100#FF0000FCFF3D00CF
(1691508216.307129) can1 0CF00400#007D92C818000F92
(1691508216.327141) can1 0CF00400#007D92C718000F92
(1691508216.346533) can1 10FF031C#0562A0074B8BD264
(1691508216.347078) can1 10FF011C#DAEB311811995EC1
(1691508216.347635) can1 10FF021C#60CA2F0068EF0002
(1691508216.348197) can1 0CF00400#007D92D318000F92
(1691508216.367149) can1 0CF00400#007D92E618000F92
(1691508216.387273) can1 0CF00400#707D91E618000F92
(1691508216.400981) can1 18FEF100#FF0000FCFF3D00CF
(1691508216.407129) can1 0CF00400#107D92DC18000F92
(1691508216.427114) can1 0CF00400#007D92E218000F92
(1691508216.447147) can1 10FF031C#050227094B8BD264
(1691508216.447689) can1 10FF011C#E8EB311825995EC1
(1691508216.448254) can1 10FF021C#70D82F0068EF0002
(1691508216.477236) can1 0CF00400#507D92A618000F93
(1691508216.477802) can1 0CF00400#607D92D018000F93
(1691508216.487293) can1 0CF00400#307D92EC18000F92
(1691508216.501026) can1 18FEF100#FF0000FCFF3D00CF
(1691508216.507219) can1 0CF00400#007D920C19000F92
(1691508216.527166) can1 0CF00400#507D913019000F92
(1691508216.547035) can1 10FF031C#05A2AD0A4B8BD264
(1691508216.547592) can1 0CF00400#407D912619000F91
(1691508216.548140) can1 10FF011C#F5EB31183B995EC1
(1691508216.548718) can1 10FF021C#F029310068EF0002
(1691508216.567121) can1 0CF00400#407D913119000F92
(1691508216.587285) can1 0CF00400#507D910319000F92
(1691508216.601037) can1 18FEF100#FF0000FCFF3D00CF
(1691508216.607118) can1 0CF00400#307D92ED18000F92
(1691508216.627636) can1 0CF00400#107D92F918000F92
(1691508216.647080) can1 10FF031C#0542340C4B8BD264
(1691508216.647626) can1 10FF011C#F8EB311857995EC1
(1691508216.648187) can1 10FF021C#B010300068EF0002
(1691508216.677183) can1 0CF00400#007D92FE18000F92
(1691508216.677745) can1 0CF00400#007D920E19000F92
(1691508216.687271) can1 0CF00400#507D912319000F92
(1691508216.701617) can1 18FEF100#FF0000FCFF3D00CF
(1691508216.707164) can1 0CF00400#607D911319000F92
(1691508216.727187) can1 0CF00400#607D910B19000F92
(1691508216.747219) can1 0CF00400#107D92DF18000F92
(1691508216.747769) can1 10FF011C#03EC311875995EC1
(1691508216.748326) can1 10FF021C#5021340068EF0002
(1691508216.748878) can1 10FF031C#05E2BA0D4B8BD264
(1691508216.767158) can1 0CF00400#207D92EE18000F92
(1691508216.787314) can1 0CF00400#107D92F918000F92
(1691508216.801631) can1 18FEF100#FF0000FCFF3D00CF
(1691508216.807167) can1 0CF00400#707D910919000F92
(1691508216.827209) can1 0CF00400#507D912219000F92
(1691508216.847286) can1 0CF00400#307D911D19000F91
(1691508216.851064) can1 10FF031C#0583410F4B8BD264
(1691508216.851613) can1 10FF011C#0EEC31188D995EC1
(1691508216.852180) can1 10FF021C#A002300068EF0002
(1691508216.881168) can1 0CF00400#407D912419000F91
(1691508216.887311) can1 0CF00400#507D91F018000F92
(1691508216.901060) can1 18FEF100#FF0000FCFF3D00CF
(1691508216.907199) can1 0CF00400#207D92EA18000F92
(1691508216.927242) can1 0CF00400#507D910319000F92
(1691508216.947185) can1 10FF031C#05E285014C8BD264
(1691508216.947741) can1 0CF00400#507D910819000F92
(1691508216.948287) can1 10FF011C#1DEC31189E995EC1
(1691508216.948848) can1 10FF021C#20A9270068EF0002
(1691508216.967208) can1 0CF00400#307D912619000F91
(1691508216.987301) can1 0CF00400#007D913319000F91
(1691508217.001115) can1 18FEF100#FF0000FCFF3D00CF
(1691508217.007301) can1 0CF00400#107D912C19000F91
(1691508217.027320) can1 0CF00400#707D902419000F91
(1691508217.047270) can1 0CF00400#407D91EA18000F92
(1691508217.047817) can1 10FF011C#37EC3118B2995EC1
(1691508217.048380) can1 10FF021C#B008290068EF0002
(1691508217.048935) can1 10FF031C#05820C034C8BD264
(1691508217.067232) can1 0CF00400#507D91FB18000F92
(1691508217.087297) can1 0CF00400#407D910319000F91
(1691508217.101113) can1 18FEF100#FF0000FCFF3D00CF
(1691508217.107211) can1 0CF00400#407D910919000F91
(1691508217.127259) can1 0CF00400#307D911419000F91
(1691508217.147286) can1 10FF031C#052293044C8BD264
(1691508217.147828) can1 10FF011C#52EC3118C4995EC1
(1691508217.148390) can1 10FF021C#B008290068EF0002
(1691508217.177376) can1 0CF00400#407D910219000F91
(1691508217.177935) can1 0CF00400#607D910119000F92
(1691508217.187299) can1 0CF00400#707D91D718000F92
(1691508217.201095) can1 18FEF100#FF0000FCFF3D00CF
(1691508217.207239) can1 0CF00400#507D92C418000F93
(1691508217.227263) can1 0CF00400#307D92D218000F92
(1691508217.247303) can1 0CF00400#107D92F218000F92
(1691508217.247850) can1 10FF011C#64EC3118DB995EC1
(1691508217.248422) can1 10FF021C#D043280068EF0002
(1691508217.248969) can1 10FF031C#05C219064C8BD264
(1691508217.267239) can1 0CF00400#707D910919000F92
(1691508217.287302) can1 0CF00400#707D910D19000F92
(1691508217.301111) can1 18FEF100#FF0000FCFF3D00CF
(1691508217.307310) can1 0CF00400#007D920819000F92
(1691508217.327307) can1 0CF00400#707D91FE18000F92
(1691508217.346979) can1 10FF031C#0562A0074C8BD264
(1691508217.347547) can1 10FF011C#75EC3118F2995EC1
(1691508217.348086) can1 10FF021C#5011260068EF0002
(1691508217.377071) can1 0CF00400#307D92C718000F92
(1691508217.377635) can1 0CF00400#307D92EC18000F92
(1691508217.387334) can1 0CF00400#107D92F618000F92
(1691508217.401133) can1 18FEF100#FF0000FCFF3D00CF
(1691508217.407269) can1 0CF00400#007D920319000F92
(1691508217.427290) can1 0CF00400#507D912D19000F92
(1691508217.447277) can1 10FF031C#050227094C8BD264
(1691508217.447832) can1 0CF00400#407D911A19000F92
(1691508217.448392) can1 10FF011C#8BEC3118079A5EC1
(1691508217.448944) can1 10FF021C#D062270068EF0002
(1691508217.467266) can1 0CF00400#607D912319000F92
(1691508217.487322) can1 0CF00400#607D91F718000F92
(1691508217.501140) can1 18FEF100#FF0000FCFF3D00CF
(1691508217.507369) can1 0CF00400#307D92EE18000F92
(1691508217.527344) can1 0CF00400#707D91FF18000F92
(1691508217.547261) can1 10FF031C#05A2AD0A4C8BD264
(1691508217.547804) can1 10FF011C#9EEC31181E9A5EC1
(1691508217.548376) can1 10FF021C#107C280068EF0002
(1691508217.577355) can1 0CF00400#607D911219000F92
(1691508217.577913) can1 0CF00400#407D912419000F92
(1691508217.587325) can1 0CF00400#107D913419000F91
(1691508217.601182) can1 18FEF100#FF0000FCFF3D00CF
(1691508217.607277) can1 0CF00400#107D912519000F91
(1691508217.627676) can1 0CF00400#107D911619000F91
(1691508217.647267) can1 10FF031C#0542340C4C8BD264
(1691508217.647825) can1 0CF00400#407D91E018000F92
(1691508217.648380) can1 10FF011C#A2EC3118389A5EC1
(1691508217.648941) can1 10FF021C#2063220068EF0002
(1691508217.667316) can1 0CF00400#507D91F118000F92
(1691508217.687328) can1 0CF00400#307D910319000F91
(1691508217.701781) can1 18FEF100#FF0000FCFF3D00CF
(1691508217.707305) can1 0CF00400#107D910B19000F91
(1691508217.727340) can1 0CF00400#007D911D19000F91
(1691508217.747276) can1 10FF031C#05E2BA0D4C8BD264
(1691508217.747816) can1 10FF011C#A7EC3118559A5EC1
(1691508217.748379) can1 10FF021C#D03B210068EF0002
(1691508217.777364) can1 0CF00400#007D911619000F91
(1691508217.777925) can1 0CF00400#107D911719000F91
(1691508217.787331) can1 0CF00400#507D91DB18000F92
(1691508217.802113) can1 18FEF100#FF0000FCFF3D00CF
(1691508217.807304) can1 0CF00400#407D92CF18000F92
(1691508217.827342) can1 0CF00400#107D92DD18000F92
(1691508217.847425) can1 0CF00400#207D92DD18000F92
(1691508217.851102) can1 10FF031C#0583410F4C8BD264
(1691508217.851641) can1 10FF011C#AAEC3118709A5EC1
(1691508217.852235) can1 10FF021C#B07C1E0068EF0002
(1691508217.867331) can1 0CF00400#107D920319000F92
(1691508217.887362) can1 0CF00400#007D920819000F92
(1691508217.901208) can1 18FEF100#FF0000FCFF3D00CF
(1691508217.907341) can1 0CF00400#107D92FC18000F92
(1691508217.927380) can1 0CF00400#107D920319000F92
(1691508217.947240) can1 10FF031C#05E285014D8BD264
(1691508217.947789) can1 10FF011C#ABEC31188D9A5EC1
(1691508217.948348) can1 10FF021C#60551D0068EF0002
(1691508217.977341) can1 0CF00400#407D92CB18000F93
(1691508217.977898) can1 0CF00400#607D92E518000F93
(1691508217.987404) can1 0CF00400#307D92FD18000F92
(1691508218.001209) can1 18FEF100#FF0000FCFF3D00CF
(1691508218.007405) can1 0CF00400#107D921919000F92
(1691508218.027346) can1 0CF00400#607D913119000F92
(1691508218.047078) can1 10FF031C#05820C034D8BD264
(1691508218.047636) can1 0CF00400#507D913319000F92
(1691508218.048183) can1 10FF011C#B8EC3118A49A5EC1
(1691508218.048752) can1 10FF021C#E0031C0068EF0002
(1691508218.067338) can1 0CF00400#507D912E19000F92
(1691508218.087375) can1 0CF00400#707D910319000F92
(1691508218.101250) can1 18FEF100#FF0000FCFF3D00CF
(1691508218.107365) can1 0CF00400#307D92F518000F92
(1691508218.127385) can1 0CF00400#007D920319000F92
(1691508218.147107) can1 10FF031C#052293044D8BD264
(1691508218.147655) can1 10FF011C#C5EC3118BA9A5EC1
(1691508218.148218) can1 10FF021C#E0E41C0068EF0002
(1691508218.177198) can1 0CF00400#607D911119000F92
(1691508218.177753) can1 0CF00400#407D912619000F91
(1691508218.187367) can1 0CF00400#007D913019000F91
(1691508218.201272) can1 18FEF100#FF0000FCFF3D00CF
(1691508218.207338) can1 0CF00400#107D912119000F91
(1691508218.227341) can1 0CF00400#007D911719000F91
(1691508218.247185) can1 10FF031C#05C219064D8BD264
(1691508218.247754) can1 0CF00400#407D91DF18000F92
(1691508218.248301) can1 10FF011C#CEEC3118CC9A5EC1
(1691508218.248869) can1 10FF021C#E0411A0068EF0002
(1691508218.267373) can1 0CF00400#407D910119000F91
(1691508218.287361) can1 0CF00400#307D910419000F91
(1691508218.301256) can1 18FEF100#FF0000FCFF3D00CF
(1691508218.307390) can1 0CF00400#307D910B19000F91
(1691508218.327395) can1 0CF00400#007D912619000F91
(1691508218.346451) can1 10FF031C#0562A0074D8BD264
(1691508218.347000) can1 10FF011C#D5EC3118DD9A5EC1
(1691508218.347564) can1 10FF021C#4050150068EF0002
(1691508218.348123) can1 0CF00400#207D910A19000F91
(1691508218.367412) can1 0CF00400#507D910F19000F92
(1691508218.387417) can1 0CF00400#707D91D718000F92
(1691508218.401308) can1 18FEF100#FF0000FCFF3D00CF
(1691508218.407362) can1 0CF00400#707D92C118000F93
(1691508218.427445) can1 0CF00400#507D92D218000F93
(1691508218.446913) can1 10FF031C#050227094D8BD264
(1691508218.447442) can1 10FF011C#DDEC3118E69A5EC1
(1691508218.448000) can1 10FF021C#8042100068EF0002
(1691508218.477002) can1 0CF00400#407D92E618000F92
(1691508218.477552) can1 0CF00400#407D92F918000F92
(1691508218.487427) can1 0CF00400#207D921019000F92
(1691508218.501302) can1 18FEF100#FF0000FCFF3D00CF
(1691508218.507439) can1 0CF00400#207D921119000F92
(1691508218.527445) can1 0CF00400#107D920B19000F92
(1691508218.547135) can1 10FF031C#05A2AD0A4D8BD264
(1691508218.547700) can1 0CF00400#307D92EA18000F92
(1691508218.548248) can1 10FF011C#E7EC3118EA9A5EC1
(1691508218.548802) can1 10FF021C#D0E50D0068EF0002
(1691508218.567431) can1 0CF00400#207D920819000F92
(1691508218.587428) can1 0CF00400#707D912419000F92
(1691508218.601309) can1 18FEF100#FF0000FCFF3D00CF
(1691508218.607439) can1 0CF00400#207D913819000F91
(1691508218.627672) can1 0CF00400#607D905719000F91
(1691508218.646918) can1 10FF031C#0542340C4D8BD264
(1691508218.647463) can1 10FF011C#ECEC3118F69A5EC1
(1691508218.648026) can1 10FF021C#900A0B0068EF0002
(1691508218.677014) can1 0CF00400#407D904D19000F91
(1691508218.677576) can1 0CF00400#407D904A19000F91
(1691508218.687447) can1 0CF00400#607D901319000F91
(1691508218.701915) can1 18FEF100#FF0000FCFF3D00CF
(1691508218.707439) can1 0CF00400#107D910A19000F91
(1691508218.727971) can1 0CF00400#707D900F19000F91
(1691508218.747122) can1 10FF031C#05E2BA0D4D8BD264
(1691508218.747691) can1 0CF00400#707D900C19000F91
(1691508218.748245) can1 10FF011C#F8EC3118079B5EC1
(1691508218.748805) can1 10FF021C#50940C0068EF0002
(1691508218.767470) can1 0CF00400#607D902B19000F91
(1691508218.787514) can1 0CF00400#607D901619000F91
(1691508218.802282) can1 18FEF100#FF0000FCFF3D00CF
(1691508218.807419) can1 0CF00400#107D910519000F91
(1691508218.827484) can1 0CF00400#107D91F718000F91
(1691508218.847593) can1 0CF00400#707D91BB18000F92
(1691508218.851286) can1 10FF031C#0583410F4D8BD264
(1691508218.851837) can1 10FF011C#06ED3118259B5EC1
(1691508218.852401) can1 10FF021C#F066120068EF0002
(1691508218.881388) can1 0CF00400#107D92D318000F92
(1691508218.887465) can1 0CF00400#707D91E618000F92
(1691508218.901367) can1 18FEF100#FF0000FCFF3D00CF
(1691508218.907461) can1 0CF00400#607D91EC18000F92
(1691508218.927461) can1 0CF00400#507D910619000F92
(1691508218.947077) can1 10FF031C#05E285014E8BD264
(1691508218.947632) can1 10FF011C#0DED3118399B5EC1
(1691508218.948196) can1 10FF021C#F028140068EF0002
(1691508218.949753) can1 0CF00400#507D910719000F92
(1691508218.967526) can1 0CF00400#707D910219000F92
(1691508218.987493) can1 0CF00400#007D92DB18000F92
(1691508219.001339) can1 18FEF100#FF0000FCFF3D00CF
(1691508219.007583) can1 0CF00400#407D92DE18000F92
(1691508219.027688) can1 0CF00400#107D92EC18000F92
(1691508219.047152) can1 10FF031C#05820C034E8BD264
(1691508219.047717) can1 0CF00400#707D910819000F92
(1691508219.048264) can1 10FF011C#11ED3118489B5EC1
(1691508219.048820) can1 10FF021C#60AA130068EF0002
(1691508219.067776) can1 0CF00400#607D912019000F92
(1691508219.087511) can1 0CF00400#407D912219000F92
(1691508219.101390) can1 18FEF100#FF0000FCFF3D00CF
(1691508219.107494) can1 0CF00400#607D911519000F92
(1691508219.127890) can1 0CF00400#507D910919000F92
(1691508219.147177) can1 10FF031C#052293044E8BD264
(1691508219.147724) can1 10FF011C#11ED3118509B5EC1
(1691508219.148291) can1 10FF021C#80BE0C0068EF0002
(1691508219.177276) can1 0CF00400#207D92CE18000F92
(1691508219.177838) can1 0CF00400#307D92F118000F92
(1691508219.187573) can1 0CF00400#007D92FE18000F92
(1691508219.201377) can1 18FEF100#FF0000FCFF3D00CF
(1691508219.207524) can1 0CF00400#707D910A19000F92
(1691508219.227511) can1 0CF00400#307D912919000F91
(1691508219.247101) can1 10FF031C#05C219064E8BD264
(1691508219.247651) can1 10FF011C#1AED3118609B5EC1
(1691508219.248217) can1 0CF00400#207D911F19000F91
(1691508219.248786) can1 10FF021C#908E0E0068EF0002
(1691508219.267526) can1 0CF00400#207D913519000F91
(1691508219.287583) can1 0CF00400#207D91FC18000F91
(1691508219.301421) can1 18FEF100#FF0000FCFF3D00CF
(1691508219.307557) can1 0CF00400#707D91F318000F92
(1691508219.327529) can1 0CF00400#407D910819000F92
(1691508219.347048) can1 10FF031C#0562A0074E8BD264
(1691508219.347592) can1 10FF011C#1AED31186B9B5EC1
(1691508219.348148) can1 10FF021C#30970B0068EF0002
(1691508219.377132) can1 0CF00400#207D911119000F91
(1691508219.377696) can1 0CF00400#207D912819000F91
(1691508219.387577) can1 0CF00400#707D902C19000F91
(1691508219.401430) can1 18FEF100#FF0000FCFF3D00CF
(1691508219.407502) can1 0CF00400#107D911619000F91
(1691508219.427585) can1 0CF00400#207D91FF18000F91
(1691508219.447197) can1 10FF031C#050227094E8BD264
(1691508219.447755) can1 0CF00400#707D91D518000F92
(1691508219.448307) can1 10FF011C#0BED31186A9B5EC1
(1691508219.448874) can1 10FF021C#60F7020068EF0002
(1691508219.467547) can1 0CF00400#007D92DE18000F92
(1691508219.487557) can1 0CF00400#707D91F318000F92
(1691508219.501441) can1 18FEF100#FF0000FCFF3D00CF
(1691508219.507604) can1 0CF00400#507D910819000F92
(1691508219.527581) can1 0CF00400#407D911B19000F91
(1691508219.547189) can1 10FF031C#05A3AD0A4E8BD264
(1691508219.547740) can1 10FF011C#02ED31187C9B5EC1
(1691508219.548294) can1 10FF021C#B0A2070068EF0002
(1691508219.577289) can1 0CF00400#507D910D19000F92
(1691508219.577847) can1 0CF00400#707D911419000F92
(1691508219.587584) can1 0CF00400#007D92E218000F92
(1691508219.601467) can1 18FEF100#FF0000FCFF3D00CF
(1691508219.607556) can1 0CF00400#507D92E018000F93
(1691508219.627703) can1 0CF00400#107D92F918000F92
(1691508219.647093) can1 10FF031C#0543340C4E8BD264
(1691508219.647637) can1 10FF011C#03ED31188A9B5EC1
(1691508219.648201) can1 0CF00400#107D92F318000F92
(1691508219.648765) can1 10FF021C#A075080068EF0002
(1691508219.667570) can1 0CF00400#007D921A19000F92
(1691508219.687570) can1 0CF00400#607D911A19000F92
(1691508219.701921) can1 18FEF100#FF0000FCFF3D00CF
(1691508219.707565) can1 0CF00400#007D921419000F92
(1691508219.727556) can1 0CF00400#607D910B19000F92
(1691508219.747186) can1 10FF031C#05E3BA0D4E8BD264
(1691508219.747737) can1 10FF011C#03ED3118969B5EC1
(1691508219.748300) can1 10FF021C#10D8080068EF0002
(1691508219.777281) can1 0CF00400#307D92D918000F92
(1691508219.777845) can1 0CF00400#207D92FA18000F92
(1691508219.787633) can1 0CF00400#007D920E19000F92
(1691508219.802421) can1 18FEF100#FF0000FCFF3D00CF
(1691508219.807536) can1 0CF00400#507D911D19000F92
(1691508219.827622) can1 0CF00400#107D913E19000F91
(1691508219.847726) can1 0CF00400#707D904019000F91
(1691508219.852087) can1 10FF031C#0584410F4E8BD264
(1691508219.852636) can1 10FF011C#F7EC3118A79B5EC1
(1691508219.853191) can1 10FF021C#40290F0068EF0002
(1691508219.867599) can1 0CF00400#007D913B19000F91
(1691508219.887628) can1 0CF00400#107D910719000F91
(1691508219.901477) can1 18FEF100#FF0000FCFF3D00CF
(1691508219.907685) can1 0CF00400#507D91FA18000F92
(1691508219.927644) can1 0CF00400#307D910319000F91
(1691508219.947175) can1 10FF031C#05E385014F8BD264
(1691508219.947714) can1 10FF011C#EEEC3118BD9B5EC1
(1691508219.948274) can1 10FF021C#8088150068EF0002
(1691508219.977280) can1 0CF00400#207D911419000F91
(1691508219.977835) can1 0CF00400#207D911A19000F91
(1691508219.987640) can1 0CF00400#207D910F19000F91
(1691508220.001524) can1 18FEF100#FF0000FCFF3D00CF
(1691508220.007714) can1 0CF00400#307D910B19000F91
(1691508220.027703) can1 0CF00400#207D91F718000F91
(1691508220.047313) can1 10FF031C#05830C034F8BD264
(1691508220.047878) can1 0CF00400#007D92C318000F92
(1691508220.048427) can1 10FF011C#F0EC3118D69B5EC1
(1691508220.048978) can1 10FF021C#E09E170068EF0002
(1691508220.067639) can1 0CF00400#007D92E818000F92
(1691508220.087660) can1 0CF00400#607D91F718000F92
(1691508220.101491) can1 18FEF100#FF0000FCFF3D00CF
(1691508220.107635) can1 0CF00400#507D910519000F92
(1691508220.127671) can1 0CF00400#207D912919000F91
(1691508220.147236) can1 10FF031C#052393044F8BD264
(1691508220.147783) can1 10FF011C#F5EC3118F89B5EC1
(1691508220.148390) can1 10FF021C#F0D31D0068EF0002
(1691508220.177331) can1 0CF00400#307D911019000F91
(1691508220.177883) can1 0CF00400#507D911A19000F92
(1691508220.187696) can1 0CF00400#707D91E718000F92
(1691508220.201505) can1 18FEF100#FF0000FCFF3D00CF
(1691508220.207676) can1 0CF00400#307D92E418000F92
(1691508220.227680) can1 0CF00400#007D92F318000F92
(1691508220.246971) can1 10FF031C#05C319064F8BD264
(1691508220.247514) can1 10FF011C#ECEC3118159C5EC1
(1691508220.248069) can1 10FF021C#A076250068EF0002
(1691508220.248637) can1 0CF00400#707D910519000F92
(1691508220.267660) can1 0CF00400#607D912719000F92
(1691508220.287689) can1 0CF00400#307D912E19000F91
(1691508220.301556) can1 18FEF100#FF0000FCFF3D00CF
(1691508220.307684) can1 0CF00400#307D912619000F91
(1691508220.327681) can1 0CF00400#207D911C19000F91
(1691508220.347379) can1 10FF031C#0563A0074F8BD264
(1691508220.347929) can1 10FF011C#E6EC3118309C5EC1
(1691508220.348500) can1 10FF021C#40682A0068EF0002
(1691508220.377470) can1 0CF00400#607D91F918000F92
(1691508220.378023) can1 0CF00400#607D910E19000F92
(1691508220.387718) can1 0CF00400#407D911F19000F91
(1691508220.401570) can1 18FEF100#FF0000FCFF3D00CF
(1691508220.407635) can1 0CF00400#207D912519000F91
(1691508220.427705) can1 0CF00400#107D912F19000F91
(1691508220.447406) can1 10FF031C#050327094F8BD264
(1691508220.447969) can1 0CF00400#207D911F19000F91
(1691508220.448520) can1 10FF011C#DAEC31183E9C5EC1
(1691508220.449080) can1 10FF021C#80622C0068EF0002
(1691508220.467682) can1 0CF00400#307D911A19000F91
(1691508220.487665) can1 0CF00400#707D91D618000F92
(1691508220.501536) can1 18FEF100#FF0000FCFF3D00CF
(1691508220.507750) can1 0CF00400#307D92DC18000F92
(1691508220.527731) can1 0CF00400#707D91F018000F92
(1691508220.547475) can1 10FF031C#05A3AD0A4F8BD264
(1691508220.548015) can1 10FF011C#CDEC3118489C5EC1
(1691508220.548584) can1 10FF021C#80432D00663B0002
(1691508220.577566) can1 0CF00400#707D91F118000F92
(1691508220.578129) can1 0CF00400#607D912019000F92
(1691508220.587653) can1 0CF00400#407D911A19000F91
(1691508220.601551) can1 18FEF100#FF0000FCFF3D00CF
(1691508220.607681) can1 0CF00400#607D911519000F92
(1691508220.627742) can1 0CF00400#407D910619000F92
(1691508220.647641) can1 10FF031C#0543340C4F8BD264
(1691508220.648202) can1 0CF00400#307D92D118000F92
(1691508220.648747) can1 10FF011C#C8EC3118539C5EC1
(1691508220.649304) can1 10FF021C#F0C42C0068790002
(1691508220.667731) can1 0CF00400#307D92E518000F92
(1691508220.687724) can1 0CF00400#207D92F918000F92
(1691508220.701940) can1 18FEF100#FF0000FCFF3D00CF
(1691508220.707690) can1 0CF00400#107D920019000F92
(1691508220.727741) can1 0CF00400#007D921519000F92
(1691508220.746998) can1 10FF031C#05E3BA0D4F8BD264
(1691508220.747548) can1 10FF011C#C2EC31185F9C5EC1
(1691508220.748114) can1 10FF021C#A0402E0056630002
(1691508220.777091) can1 0CF00400#107D920F19000F92
(1691508220.777649) can1 0CF00400#107D921B19000F92
(1691508220.787749) can1 0CF00400#207D92F518000F92
(1691508220.802545) can1 18FEF100#FF0000FCFF3D00CF
(1691508220.807749) can1 0CF00400#307D92FA18000F92
(1691508220.827761) can1 0CF00400#007D921C19000F92
(1691508220.847859) can1 0CF00400#307D914119000F91
(1691508220.852487) can1 10FF031C#0584410F4F8BD264
(1691508220.853035) can1 10FF011C#C1EC3118719C5EC1
(1691508220.853595) can1 10FF021C#90132F00EAA10002
(1691508220.867765) can1 0CF00400#007D915C19000F91
(1691508220.887760) can1 0CF00400#407D905719000F91
(1691508220.901707) can1 18FEF100#FF0000FCFF3D00CF
(1691508220.907706) can1 0CF00400#507D904C19000F91
(1691508220.927745) can1 0CF00400#407D902F19000F90
(1691508220.947527) can1 10FF031C#05E38501508BD264
(1691508220.948070) can1 10FF011C#C5EC3118749C5EC1
(1691508220.948665) can1 10FF021C#00302A00EAA10002
(1691508220.977629) can1 0CF00400#107D910B19000F91
(1691508220.978187) can1 0CF00400#607D901819000F91
(1691508220.987726) can1 0CF00400#607D900F19000F91
(1691508221.001609) can1 18FEF100#FF0000FCFF3D00CF
(1691508221.007831) can1 0CF00400#607D901319000F91
(1691508221.027800) can1 0CF00400#407D901F19000F91
(1691508221.047656) can1 10FF031C#05830C03508BD264
(1691508221.048217) can1 0CF00400#707D90FB18000F91
(1691508221.048758) can1 10FF011C#CAEC3118739C5EC1
(1691508221.049312) can1 10FF021C#F0BC2500EAA10002
(1691508221.067772) can1 0CF00400#007D910019000F91
(1691508221.087741) can1 0CF00400#307D91CA18000F91
(1691508221.101623) can1 18FEF100#FF0000FCFF3D00CF
(1691508221.107716) can1 0CF00400#707D91CC18000F92
(1691508221.127755) can1 0CF00400#607D91DC18000F92
(1691508221.147454) can1 10FF031C#05239304508BD264
(1691508221.147993) can1 10FF011C#C9EC3118799C5EC1
(1691508221.148548) can1 10FF021C#B0842500EAA10002
(1691508221.177544) can1 0CF00400#507D91E718000F92
(1691508221.178104) can1 0CF00400#507D91FF18000F92
(1691508221.187810) can1 0CF00400#407D910019000F92
(1691508221.201687) can1 18FEF100#FF0000FCFF3D00CF
(1691508221.207801) can1 0CF00400#507D91F918000F92
(1691508221.227802) can1 0CF00400#507D91E118000F92
