(1687630340.089545) can0 0CF00400#0E7D7D0000030F7D
(1687630340.089555) can0 0CF00400#0E7D7D0000030F7D
(1687630340.089561) can0 0CF00400#0E7D7D0000030F7D
(1687630340.089567) can0 0CF00400#0E7D7D0000030F7D
(1687630340.089572) can0 10FF031C#0493AD0A108BD264
(1687630340.089577) can0 10FF011C#75FE31180DBB5EC1
(1687630340.089582) can0 10FF021C#D0DD06008E970002
(1687630340.089588) can0 0CF00400#0E7D7D0000030F7D
(1687630340.089593) can0 0CF00400#0E7D7D0000000F7D
(1687630340.089598) can0 18FEF100#FF1C00FCFF3D00CF
(1687630340.089603) can0 0CF00400#0E7D7D0000000F7D
(1687630340.089608) can0 0CF00400#0E7D7D0000000F7D
(1687630340.089614) can0 0CF00400#0E7D7D0000000F7D
(1687630340.089619) can0 10FF031C#0433340C108BD264
(1687630340.089624) can0 10FF011C#62FE311802BB5EC1
(1687630340.089629) can0 10FF021C#607B06008E970002
(1687630340.089634) can0 0CF00400#0E7D7D0000000F7D
(1687630340.089640) can0 0CF00400#0E7D7D0000000F7D
(1687630340.089645) can0 18FEF100#FF0800FCFF3D00CF
(1687630340.091049) can0 0CF00400#0E7D7D0000000F7D
(1687630340.091056) can0 0CF00400#0E7D7D0000000F7D
(1687630340.091092) can0 0CF00400#0E7D7D0000000F7D
(1687630340.091099) can0 10FF031C#04D3BA0D108BD264
(1687630340.091134) can0 10FF011C#4AFE3118F5BA5EC1
(1687630340.091140) can0 10FF021C#F0F906008E970002
(1687630340.091176) can0 0CF00400#0E7D7D0000000F7D
(1687630340.091181) can0 0CF00400#0E7D7D0000000F7D
(1687630340.091217) can0 18FEF100#FF0400FCFF3D00CF
(1687630340.091223) can0 0CF00400#0E7D7D0000000F7D
(1687630340.091259) can0 0CF00400#0E7D7D0000000F7D
(1687630340.091264) can0 0CF00400#0E7D7D0000000F7D
(1687630340.091300) can0 10FF031C#0474410F108BD264
(1687630340.091306) can0 10FF011C#33FE3118ECBA5EC1
(1687630340.091341) can0 10FF021C#E0AD08008E970002
(1687630340.091347) can0 0CF00400#0E7D7D0000000F7D
(1687630340.091353) can0 0CF00400#0E7D7D0000000F7D
(1687630340.091358) can0 18FEF100#FF0000FCFF3D00CF
(1687630340.091364) can0 0CF00400#0E7D7D0000000F7D
(1687630340.091446) can0 0CF00400#0E7D7D0000000F7D
(1687630340.091452) can0 0CF00400#0E7D7D0000000F7D
(1687630340.091487) can0 10FF031C#04D38501118BD264
(1687630340.091493) can0 10FF011C#1CFE3118E0BA5EC1
(1687630340.091529) can0 10FF021C#801B0A008E970002
(1687630340.091535) can0 0CF00400#0E7D7D0000000F7D
(1687630340.091570) can0 0CF00400#0E7D7D0000000F7D
(1687630340.091576) can0 18FEF100#FF0000FCFF3D00CF
(1687630340.091612) can0 0CF00400#0E7D7D0000000F7D
(1687630340.091617) can0 0CF00400#0E7D7D0000000F7D
(1687630340.091653) can0 0CF00400#0E7D7D0000000F7D
(1687630340.091659) can0 10FF031C#04730C03118BD264
(1687630340.091694) can0 10FF011C#1BFE3118DFBA5EC1
(1687630340.091700) can0 10FF021C#508C05008E970002
(1687630340.091736) can0 0CF00400#0E7D7D0000000F7D
(1687630340.091742) can0 0CF00400#0E7D7D0000000F7D
(1687630340.091747) can0 18FEF100#FF0000FCFF3D00CF
(1687630340.091753) can0 0CF00400#0E7D7D0000000F7D
(1687630340.091758) can0 0CF00400#0E7D7D0000000F7D
(1687630340.091838) can0 0CF00400#0E7D7D0000000F7D
(1687630340.091844) can0 10FF031C#04139304118BD264
(1687630340.091880) can0 10FF011C#19FE3118E1BA5EC1
(1687630340.091886) can0 10FF021C#20BF02008E970002
(1687630340.091921) can0 0CF00400#0E7D7D0000000F7D
(1687630340.091927) can0 0CF00400#0E7D7D0000000F7D
(1687630340.091963) can0 18FEF100#FF0000FCFF3D00CF
(1687630340.091969) can0 0CF00400#0E7D7D0000000F7D
(1687630340.092004) can0 0CF00400#0E7D7D0000000F7D
(1687630340.092010) can0 0CF00400#0E7D7D0000000F7D
(1687630340.092046) can0 10FF031C#04B31906118BD264
(1687630340.092052) can0 10FF011C#0DFE3118DFBA5EC1
(1687630340.092087) can0 10FF021C#C0CF06008E970002
(1687630340.092093) can0 0CF00400#0E7D7D0000000F7D
(1687630340.092129) can0 0CF00400#0E7D7D0000000F7D
(1687630340.092135) can0 18FEF100#FF0000FCFF3D00CF
(1687630340.092141) can0 0CF00400#0E7D7D0000000F7D
(1687630340.092146) can0 0CF00400#0E7D7D0000000F7D
(1687630340.111951) can0 0CF00400#0E7D7D0000000F7D
(1687630340.116089) can0 10FF031C#0453A007118BD264
(1687630340.116612) can0 10FF011C#FFFD3118DABA5EC1
(1687630340.117205) can0 10FF021C#70A805008E970002
(1687630340.146174) can0 0CF00400#0E7D7D0000000F7D
(1687630340.150373) can0 0CF00400#0E7D7D0000000F7D
(1687630340.166799) can0 18FEF100#FF0000FCFF3D00CF
(1687630340.170239) can0 0CF00400#0E7D7D0000000F7D
(1687630340.190214) can0 0CF00400#0E7D7D0000000F7D
(1687630340.211388) can0 0CF00400#0E7D7D0000000F7D
(1687630340.216454) can0 10FF031C#04F32609118BD264
(1687630340.217035) can0 10FF011C#04FE3118DEBA5EC1
(1687630340.217566) can0 10FF021C#F09C09008E970002
(1687630340.230287) can0 0CF00400#0E7D7D0000000F7D
(1687630340.250301) can0 0CF00400#0E7D7D0000000F7D
(1687630340.266835) can0 18FEF100#FF0000FCFF3D00CF
(1687630340.270252) can0 0CF00400#0E7D7D0000000F7D
(1687630340.290244) can0 0CF00400#0E7D7D0000000F7D
(1687630340.311345) can0 0CF00400#4E7DA7E805000FA7
(1687630340.315576) can0 10FF031C#0493AD0A118BD264
(1687630340.316171) can0 10FF011C#07FE3118E4BA5EC1
(1687630340.316696) can0 10FF021C#B0450A008E970002
(1687630340.330271) can0 0CF00400#4E7DA7ED05000FA7
(1687630340.350287) can0 0CF00400#5E7DB0F505000FAB
(1687630340.366858) can0 18FEF100#FF0000FCFF3D00CF
(1687630340.370244) can0 0CF00400#3E7DB50806000FAB
(1687630340.390474) can0 0CF00400#0E7DB62B06000FAB
(1687630340.411322) can0 0CF00400#0E7DB53D06000FAB
(1687630340.416210) can0 10FF031C#0433340C118BD264
(1687630340.416730) can0 10FF011C#FAFD3118E2BA5EC1
(1687630340.417326) can0 10FF021C#D0420B008E970002
(1687630340.446275) can0 0CF00400#0E7DB55206000FAB
(1687630340.450578) can0 0CF00400#3E7DB84D06000FAB
(1687630340.466854) can0 18FEF100#FF0000FCFF3D00CF
(1687630340.470482) can0 0CF00400#2E7DB85606000FAB
(1687630340.490442) can0 0CF00400#2E7DB8B906000FAB
(1687630340.511329) can0 0CF00400#1E7DB89E07000FAB
(1687630340.516193) can0 10FF031C#04D3BA0D118BD264
(1687630340.516745) can0 10FF011C#E5FD3118DEBA5EC1
(1687630340.517335) can0 10FF021C#E0AD08008E970002
(1687630340.530503) can0 0CF00400#1E7DB8D008000FAB
(1687630340.550608) can0 0CF00400#7E7DB5F309000FB4
(1687630340.567462) can0 18FEF100#FF0000FCFF3D00CF
(1687630340.570519) can0 0CF00400#1E7DB7250B000FB4
(1687630340.590529) can0 0CF00400#5E7DB6240D000FB4
(1687630340.611915) can0 0CF00400#5E7DB6C80E000FAF
(1687630340.621430) can0 10FF031C#0474410F118BD264
(1687630340.622010) can0 10FF011C#CFFD3118D4BA5EC1
(1687630340.622548) can0 10FF021C#107304008E970002
(1687630340.651553) can0 0CF00400#0E7DB60711000FA8
(1687630340.652087) can0 0CF00400#3E7DB1EE12000FA2
(1687630340.665778) can0 18FEF100#FF0000FCFF3D00CF
(1687630340.670572) can0 0CF00400#2E7DACEF14000F9B
(1687630340.690624) can0 0CF00400#4E7DA6C716000F97
(1687630340.711283) can0 0CF00400#6E7DA28918000F93
(1687630340.716041) can0 10FF031C#04D38501128BD264
(1687630340.716589) can0 10FF011C#B2FD3118C4BA5EC1
(1687630340.717155) can0 10FF021C#30EC01008E970002
(1687630340.730697) can0 0CF00400#087D9F111A000F8F
(1687630340.750962) can0 0CF00400#787D8E201B000F8F
(1687630340.765746) can0 18FEF100#FF0000FCFF3D00CF
(1687630340.770697) can0 0CF00400#587D8AAC1B000F8B
(1687630340.790709) can0 0CF00400#387D89AC1B000F89
(1687630340.811311) can0 0CF00400#687D89611B000F8A
(1687630340.815520) can0 10FF031C#04730C03128BD264
(1687630340.816041) can0 10FF011C#9EFD3118BFBA5EC1
(1687630340.816638) can0 10FF021C#006504008E970002
(1687630340.830670) can0 0CF00400#187D8BDC1A000F8B
(1687630340.850727) can0 0CF00400#487D8D381A000F8D
(1687630340.865758) can0 18FEF100#FF0000FCFF3D00CF
(1687630340.870676) can0 0CF00400#787D8E141A000F8F
(1687630340.890705) can0 0CF00400#287D8F081A000F8F
(1687630340.910959) can0 0CF00400#187D8F0A1A000F8F
(1687630340.916196) can0 10FF031C#04139304128BD264
(1687630340.916744) can0 10FF011C#8BFD3118B5BA5EC1
(1687630340.917311) can0 10FF021C#20A003008E970002
(1687630340.946288) can0 0CF00400#587D8E1D1A000F8F
(1687630340.950786) can0 0CF00400#387D8E1D1A000F8E
(1687630340.965777) can0 18FEF100#FF0000FCFF3D00CF
(1687630340.970689) can0 0CF00400#187D8E2D1A000F8E
(1687630340.990684) can0 0CF00400#187D8E051A000F8E
(1687630341.000001) can0 0CF00400#287D8E141A000F8E
(1687630341.004748) can0 10FF031C#04B31906128BD264
(1687630341.005332) can0 10FF011C#77FD3118ACBA5EC1
(1687630341.005861) can0 10FF021C#50E902008E970002
(1687630341.019384) can0 0CF00400#687D8D281A000F8E
(1687630341.039375) can0 0CF00400#387D8D351A000F8D
(1687630341.056164) can0 18FEF100#FF0000FCFF3D00CF
(1687630341.059371) can0 0CF00400#087D8D391A000F8D
(1687630341.079375) can0 0CF00400#187D8D061A000F8D
(1687630341.100723) can0 0CF00400#687D8DF219000F8E
(1687630341.104667) can0 10FF031C#0453A007128BD264
(1687630341.105185) can0 10FF011C#5AFD3118A2BA5EC1
(1687630341.105748) can0 10FF021C#004605008E970002
(1687630341.134725) can0 0CF00400#587D8E9719000F8F
(1687630341.139469) can0 0CF00400#287D906119000F90
(1687630341.154471) can0 18FEF100#FF0000FCFF3D00CF
(1687630341.159377) can0 0CF00400#287D905A19000F90
(1687630341.179411) can0 0CF00400#387D905319000F90
(1687630341.199979) can0 0CF00400#487D906419000F90
(1687630341.204723) can0 10FF031C#04F32609128BD264
(1687630341.205252) can0 10FF011C#3FFD311891BA5EC1
(1687630341.205841) can0 10FF021C#80F403008E970002
(1687630341.219388) can0 0CF00400#387D905119000F90
(1687630341.239458) can0 0CF00400#687D904119000F91
(1687630341.254428) can0 18FEF100#FF0400FCFF3D00CF
(1687630341.259452) can0 0CF00400#587D902C19000F91
(1687630341.279371) can0 0CF00400#587D91D118000F92
(1687630341.300021) can0 0CF00400#187D92D318000F92
(1687630341.304193) can0 10FF031C#0493AD0A128BD264
(1687630341.304776) can0 10FF011C#2EFD31188CBA5EC1
(1687630341.305313) can0 10FF021C#20A003008E970002
(1687630341.319375) can0 0CF00400#187D92E118000F92
(1687630341.339423) can0 0CF00400#787D91ED18000F92
(1687630341.354398) can0 18FEF100#FF0800FCFF3D00CF
(1687630341.359417) can0 0CF00400#487D910119000F92
(1687630341.379369) can0 0CF00400#587D91EF18000F92
(1687630341.399999) can0 0CF00400#687D91F118000F92
(1687630341.404664) can0 10FF031C#0434340C128BD264
(1687630341.405251) can0 10FF011C#17FD311882BA5EC1
(1687630341.405785) can0 10FF021C#D05903008E970002
(1687630341.434791) can0 0CF00400#187D92B618000F92
(1687630341.439436) can0 0CF00400#787D929F18000F93
(1687630341.454489) can0 18FEF100#FF0400FCFF3D00CF
(1687630341.459956) can0 0CF00400#587D92B118000F93
(1687630341.479418) can0 0CF00400#387D92CD18000F92
(1687630341.499980) can0 0CF00400#187D92EA18000F92
(1687630341.504769) can0 10FF031C#04D4BA0D128BD264
(1687630341.505296) can0 10FF011C#FAFC31187EBA5EC1
(1687630341.505881) can0 10FF021C#10B909008E970002
(1687630341.519387) can0 0CF00400#787D91E818000F92
(1687630341.539439) can0 0CF00400#287D92DA18000F92
(1687630341.555576) can0 18FEF100#FF0000FCFF3D00CF
(1687630341.559375) can0 0CF00400#787D91E318000F92
(1687630341.579424) can0 0CF00400#587D929B18000F93
(1687630341.600535) can0 0CF00400#687D92C618000F93
(1687630341.609301) can0 10FF031C#0475410F128BD264
(1687630341.609819) can0 10FF011C#E6FC311873BA5EC1
(1687630341.610406) can0 10FF021C#90C405008E970002
(1687630341.639369) can0 0CF00400#187D92F218000F92
(1687630341.639952) can0 0CF00400#587D911D19000F92
(1687630341.654478) can0 18FEF100#FF0000FCFF3D00CF
(1687630341.659401) can0 0CF00400#787D905119000F91
(1687630341.679411) can0 0CF00400#587D904619000F91
(1687630341.700527) can0 0CF00400#687D904E19000F91
(1687630341.704991) can0 10FF031C#04D48501138BD264
(1687630341.705576) can0 10FF011C#DFFC31187CBA5EC1
(1687630341.706109) can0 10FF021C#002706008E970002
(1687630341.719455) can0 0CF00400#787D901419000F91
(1687630341.739614) can0 0CF00400#787D91F218000F92
(1687630341.754458) can0 18FEF100#FF0000FCFF3D00CF
(1687630341.759444) can0 0CF00400#687D91F518000F92
(1687630341.779428) can0 0CF00400#687D91FB18000F92
(1687630341.799999) can0 0CF00400#587D910619000F92
(1687630341.804449) can0 10FF031C#04740C03138BD264
(1687630341.805029) can0 10FF011C#C7FC311878BA5EC1
(1687630341.805560) can0 10FF021C#502F08008E970002
(1687630341.819474) can0 0CF00400#487D910419000F92
(1687630341.839480) can0 0CF00400#687D91F018000F92
(1687630341.854491) can0 18FEF100#FF0000FCFF3D00CF
(1687630341.859406) can0 0CF00400#787D91E618000F92
(1687630341.879404) can0 0CF00400#287D92B918000F92
(1687630341.900143) can0 0CF00400#387D92D318000F92
(1687630341.904699) can0 10FF031C#04149304138BD264
(1687630341.905221) can0 10FF011C#ADFC311870BA5EC1
(1687630341.905809) can0 10FF021C#D0610A008E970002
(1687630341.934765) can0 0CF00400#187D92F618000F92
(1687630341.939551) can0 0CF00400#487D911D19000F91
(1687630341.954469) can0 18FEF100#FF0000FCFF3D00CF
(1687630341.959456) can0 0CF00400#187D913519000F91
(1687630341.979440) can0 0CF00400#087D912919000F91
(1687630342.000001) can0 0CF00400#287D912619000F91
(1687630342.004363) can0 10FF031C#04B41906138BD264
(1687630342.004885) can0 10FF011C#96FC311867BA5EC1
(1687630342.005470) can0 10FF021C#10B909008E970002
(1687630342.019501) can0 0CF00400#387D91F318000F91
(1687630342.039590) can0 0CF00400#187D92E118000F92
(1687630342.054521) can0 18FEF100#FF0000FCFF3D00CF
(1687630342.059526) can0 0CF00400#787D91F018000F92
(1687630342.079479) can0 0CF00400#787D91ED18000F92
(1687630342.100792) can0 0CF00400#687D910D19000F92
(1687630342.104916) can0 10FF031C#0454A007138BD264
(1687630342.105496) can0 10FF011C#82FC31185CBA5EC1
(1687630342.106036) can0 10FF021C#008C0A008E970002
(1687630342.135036) can0 0CF00400#387D910E19000F91
(1687630342.139611) can0 0CF00400#687D91FD18000F92
(1687630342.154552) can0 18FEF100#FF0000FCFF3D00CF
(1687630342.159482) can0 0CF00400#487D910419000F92
(1687630342.179446) can0 0CF00400#787D91D918000F92
(1687630342.199993) can0 0CF00400#087D92F718000F92
(1687630342.204721) can0 10FF031C#04F42609138BD264
(1687630342.205309) can0 10FF011C#68FC311845BA5EC1
(1687630342.205833) can0 10FF021C#E06F0A008E970002
(1687630342.219543) can0 0CF00400#687D910C19000F92
(1687630342.239549) can0 0CF00400#387D911C19000F91
(1687630342.254563) can0 18FEF100#FF0000FCFF3D00CF
(1687630342.259533) can0 0CF00400#187D912D19000F91
(1687630342.279530) can0 0CF00400#187D911919000F91
(1687630342.300005) can0 0CF00400#487D910C19000F91
(1687630342.304175) can0 10FF031C#0494AD0A138BD264
(1687630342.304696) can0 10FF011C#4BFC311827BA5EC1
(1687630342.305283) can0 10FF021C#B0450A008E970002
(1687630342.319517) can0 0CF00400#687D91DA18000F92
(1687630342.339587) can0 0CF00400#487D92C618000F92
(1687630342.354535) can0 18FEF100#FF0000FCFF3D00CF
(1687630342.359490) can0 0CF00400#287D92D518000F92
(1687630342.379475) can0 0CF00400#087D92EF18000F92
(1687630342.399985) can0 0CF00400#687D910519000F92
(1687630342.404822) can0 10FF031C#0434340C138BD264
(1687630342.405383) can0 10FF011C#37FC311817BA5EC1
(1687630342.405973) can0 10FF021C#70EE0A008E970002
(1687630342.434915) can0 0CF00400#407D910819000F92
(1687630342.439624) can0 0CF00400#607D91FC18000F92
(1687630342.454573) can0 18FEF100#FF0000FCFF3D00CF
(1687630342.459995) can0 0CF00400#507D91F918000F92
(1687630342.479525) can0 0CF00400#107D92C018000F92
(1687630342.500052) can0 0CF00400#207D92E018000F92
(1687630342.504746) can0 10FF031C#04D4BA0D138BD264
(1687630342.505331) can0 10FF011C#27FC311802BA5EC1
(1687630342.505858) can0 10FF021C#90A506008E970002
(1687630342.519563) can0 0CF00400#707D91FA18000F92
(1687630342.539579) can0 0CF00400#507D911119000F92
(1687630342.555778) can0 18FEF100#FF0000FCFF3D00CF
(1687630342.559471) can0 0CF00400#107D913019000F91
(1687630342.579517) can0 0CF00400#107D911919000F91
(1687630342.600575) can0 0CF00400#307D911C19000F91
(1687630342.609296) can0 10FF031C#0475410F138BD264
(1687630342.609855) can0 10FF011C#0DFC3118E3B95EC1
(1687630342.610415) can0 10FF021C#D0FC05008E970002
(1687630342.639428) can0 0CF00400#407D91FB18000F91
(1687630342.639967) can0 0CF00400#107D92E618000F92
(1687630342.654605) can0 18FEF100#FF0000FCFF3D00CF
(1687630342.659498) can0 0CF00400#607D91FC18000F92
(1687630342.679503) can0 0CF00400#407D911619000F92
(1687630342.700529) can0 0CF00400#207D913319000F91
(1687630342.704823) can0 10FF031C#04D48501148BD264
(1687630342.705341) can0 10FF011C#EEFB3118C7B95EC1
(1687630342.705935) can0 10FF021C#103506008E970002
(1687630342.719563) can0 0CF00400#007D913A19000F91
(1687630342.739784) can0 0CF00400#007D912819000F91
(1687630342.754613) can0 18FEF100#FF0000FCFF3D00CF
(1687630342.759687) can0 0CF00400#107D911919000F91
(1687630342.779545) can0 0CF00400#507D91E618000F92
(1687630342.800026) can0 0CF00400#707D91FC18000F92
(1687630342.804967) can0 10FF031C#04740C03148BD264
(1687630342.805515) can0 10FF011C#E2FB3118BAB95EC1
(1687630342.806076) can0 10FF021C#D0BE07008E970002
(1687630342.819543) can0 0CF00400#507D910D19000F92
(1687630342.839642) can0 0CF00400#307D911C19000F91
(1687630342.854621) can0 18FEF100#FF0000FCFF3D00CF
(1687630342.859893) can0 0CF00400#107D912519000F91
(1687630342.879559) can0 0CF00400#207D911019000F91
(1687630342.899777) can0 0CF00400#407D911219000F91
(1687630342.904805) can0 10FF031C#04149304148BD264
(1687630342.905388) can0 10FF011C#D8FB3118A7B95EC1
(1687630342.905921) can0 10FF021C#90E304008E970002
(1687630342.934933) can0 0CF00400#407D91ED18000F92
(1687630342.939665) can0 0CF00400#007D92EC18000F92
(1687630342.954669) can0 18FEF100#FF0000FCFF3D00CF
(1687630342.960070) can0 0CF00400#507D910019000F92
(1687630342.979595) can0 0CF00400#407D910C19000F92
(1687630343.000001) can0 0CF00400#507D91FC18000F92
(1687630343.004919) can0 10FF031C#04B41906148BD264
(1687630343.005437) can0 10FF011C#D0FB311886B95EC1
(1687630343.006005) can0 10FF021C#407E05008E970002
(1687630343.019574) can0 0CF00400#707D91D718000F92
(1687630343.039628) can0 0CF00400#507D929C18000F93
(1687630343.054697) can0 18FEF100#FF0000FCFF3D00CF
(1687630343.059553) can0 0CF00400#107D936E18000F93
(1687630343.079597) can0 0CF00400#107D941118000F94
(1687630343.100915) can0 0CF00400#507D942118000F95
(1687630343.104743) can0 10FF031C#0454A007148BD264
(1687630343.105265) can0 10FF011C#C5FB311864B95EC1
(1687630343.105857) can0 10FF021C#402108008E970002
(1687630343.134823) can0 0CF00400#307D943818000F94
(1687630343.139727) can0 0CF00400#207D944F18000F94
(1687630343.154651) can0 18FEF100#FF0000FCFF3D00CF
(1687630343.159593) can0 0CF00400#707D936E18000F94
(1687630343.179538) can0 0CF00400#607D936718000F94
(1687630343.200021) can0 0CF00400#007D946D18000F94
(1687630343.204299) can0 10FF031C#04F42609148BD264
(1687630343.204879) can0 10FF011C#A2FB311831B95EC1
(1687630343.205415) can0 10FF021C#B01E04008E970002
(1687630343.219605) can0 0CF00400#007D945C18000F94
(1687630343.239630) can0 0CF00400#007D953B18000F95
(1687630343.254659) can0 18FEF100#FF0000FCFF3D00CF
(1687630343.259649) can0 0CF00400#007D955918000F95
(1687630343.279558) can0 0CF00400#007D958118000F95
(1687630343.300024) can0 0CF00400#607D949918000F95
(1687630343.304949) can0 10FF031C#0494AD0A148BD264
(1687630343.305528) can0 10FF011C#79FB3118F1B85EC1
(1687630343.306070) can0 10FF021C#C00D05008E970002
(1687630343.335084) can0 0CF00400#707D94A518000F95
(1687630343.339661) can0 0CF00400#307D958F18000F95
(1687630343.354665) can0 18FEF100#FF0000FCFF3D00CF
(1687630343.359526) can0 0CF00400#707D959918000F96
(1687630343.379635) can0 0CF00400#007D967E18000F96
(1687630343.399984) can0 0CF00400#307D969018000F96
(1687630343.404757) can0 10FF031C#0434340C148BD264
(1687630343.405284) can0 10FF011C#5FFB3118CFB85EC1
(1687630343.405872) can0 10FF021C#F0B301008E970002
(1687630343.419613) can0 0CF00400#307D95CE18000F95
(1687630343.439664) can0 0CF00400#407D940719000F95
(1687630343.454672) can0 18FEF100#FF0000FCFF3D00CF
(1687630343.460031) can0 0CF00400#307D935919000F93
(1687630343.479622) can0 0CF00400#107D927219000F92
(1687630343.499983) can0 0CF00400#607D917D19000F92
(1687630343.504693) can0 10FF031C#04D4BA0D148BD264
(1687630343.505212) can0 10FF011C#42FB3118B6B85EC1
(1687630343.505805) can0 10FF021C#10D808008E970002
(1687630343.534762) can0 0CF00400#707D908C19000F91
(1687630343.539700) can0 0CF00400#107D916119000F91
(1687630343.555811) can0 18FEF100#FF0000FCFF3D00CF
(1687630343.559581) can0 0CF00400#007D917519000F91
(1687630343.579624) can0 0CF00400#607D907319000F91
(1687630343.600562) can0 0CF00400#507D905E19000F91
(1687630343.609730) can0 10FF031C#0475410F148BD264
(1687630343.610317) can0 10FF011C#30FB31189BB85EC1
(1687630343.610851) can0 10FF021C#004605008E970002
(1687630343.619680) can0 0CF00400#007D914519000F91
(1687630343.639661) can0 0CF00400#507D910D19000F92
(1687630343.654710) can0 18FEF100#FF0000FCFF3D00CF
(1687630343.659598) can0 0CF00400#307D92E118000F92
(1687630343.679629) can0 0CF00400#107D93A018000F93
(1687630343.700539) can0 0CF00400#607D93A518000F94
(1687630343.704282) can0 10FF031C#04D48501158BD264
(1687630343.704863) can0 10FF011C#2AFB31188DB85EC1
(1687630343.705396) can0 10FF021C#904002008E970002
(1687630343.719675) can0 0CF00400#407D93BF18000F94
(1687630343.739888) can0 0CF00400#207D93E818000F93
(1687630343.754695) can0 18FEF100#FF0000FCFF3D00CF
(1687630343.759637) can0 0CF00400#007D930419000F93
(1687630343.779631) can0 0CF00400#107D93F318000F93
(1687630343.799972) can0 0CF00400#507D93E518000F94
(1687630343.804874) can0 10FF031C#04740C03158BD264
(1687630343.805395) can0 10FF011C#15FB311875B85EC1
(1687630343.805993) can0 10FF021C#807000008E970002
(1687630343.834940) can0 0CF00400#507D93D518000F94
(1687630343.839718) can0 0CF00400#407D949818000F95
(1687630343.855289) can0 18FEF100#FF0000FCFF3D00CF
(1687630343.859635) can0 0CF00400#507D94C118000F95
(1687630343.879667) can0 0CF00400#207D94DB18000F94
(1687630343.899816) can0 0CF00400#707D93F718000F94
(1687630343.904869) can0 10FF031C#04149304158BD264
(1687630343.905390) can0 10FF011C#FAFA311859B85EC1
(1687630343.905981) can0 10FF021C#60D803008E970002
(1687630343.919686) can0 0CF00400#407D931119000F93
(1687630343.939792) can0 0CF00400#507D93FC18000F94
(1687630343.954690) can0 18FEF100#FF0000FCFF3D00CF
(1687630343.959691) can0 0CF00400#607D931419000F94
(1687630343.979658) can0 0CF00400#607D93DF18000F94
(1687630344.000001) can0 0CF00400#407D94D818000F95
(1687630344.004642) can0 10FF031C#04B41906158BD264
(1687630344.005223) can0 10FF011C#DDFA311839B85EC1
(1687630344.005756) can0 10FF021C#A0B306008E970002
(1687630344.034782) can0 0CF00400#107D94F318000F94
(1687630344.039682) can0 0CF00400#607D930F19000F94
(1687630344.055320) can0 18FEF100#FF0000FCFF3D00CF
(1687630344.059649) can0 0CF00400#507D932619000F94
(1687630344.079658) can0 0CF00400#407D931F19000F93
(1687630344.100961) can0 0CF00400#607D930D19000F94
(1687630344.104740) can0 10FF031C#0454A007158BD264
(1687630344.105326) can0 10FF011C#C3FA31181BB85EC1
(1687630344.105856) can0 10FF021C#70C704008E970002
(1687630344.119757) can0 0CF00400#707D93F718000F94
(1687630344.139780) can0 0CF00400#407D94CC18000F95
(1687630344.154742) can0 18FEF100#FF0000FCFF3D00CF
(1687630344.159600) can0 0CF00400#507D94DC18000F95
(1687630344.179703) can0 0CF00400#407D94F718000F95
(1687630344.199980) can0 0CF00400#107D941019000F94
(1687630344.204337) can0 10FF031C#04F42609158BD264
(1687630344.204864) can0 10FF011C#AEFA311809B85EC1
(1687630344.205453) can0 10FF021C#00AB09008E970002
(1687630344.219703) can0 0CF00400#607D932619000F94
(1687630344.239734) can0 0CF00400#607D931B19000F94
(1687630344.255272) can0 18FEF100#FF0000FCFF3D00CF
(1687630344.259728) can0 0CF00400#507D932819000F94
(1687630344.279719) can0 0CF00400#507D93FF18000F94
(1687630344.299987) can0 0CF00400#007D940B19000F94
(1687630344.304591) can0 10FF031C#0494AD0A158BD264
(1687630344.305143) can0 10FF011C#9BFA3118F3B75EC1
(1687630344.305738) can0 10FF021C#A0B306008E970002
(1687630344.334698) can0 0CF00400#107D933519000F93
(1687630344.339749) can0 0CF00400#607D924A19000F93
(1687630344.355271) can0 18FEF100#FF0000FCFF3D00CF
(1687630344.359675) can0 0CF00400#307D926C19000F92
(1687630344.379726) can0 0CF00400#007D925719000F92
(1687630344.400008) can0 0CF00400#307D923E19000F92
(1687630344.404656) can0 10FF031C#0434340C158BD264
(1687630344.405240) can0 10FF011C#83FA3118DCB75EC1
(1687630344.405778) can0 10FF021C#405F06008E970002
(1687630344.419750) can0 0CF00400#407D921E19000F93
(1687630344.439775) can0 0CF00400#307D93E418000F93
(1687630344.455295) can0 18FEF100#FF0000FCFF3D00CF
(1687630344.459929) can0 0CF00400#407D93F718000F93
(1687630344.479750) can0 0CF00400#207D931219000F93
(1687630344.499983) can0 0CF00400#707D922319000F93
(1687630344.504815) can0 10FF031C#04D4BA0D158BD264
(1687630344.505367) can0 10FF011C#6EFA3118C5B75EC1
(1687630344.505926) can0 10FF021C#E06703008E970002
(1687630344.534950) can0 0CF00400#507D923819000F93
(1687630344.539744) can0 0CF00400#607D922D19000F93
(1687630344.555878) can0 18FEF100#FF0000FCFF3D00CF
(1687630344.559667) can0 0CF00400#707D922B19000F93
(1687630344.579773) can0 0CF00400#207D93F218000F93
(1687630344.600535) can0 0CF00400#707D93F118000F94
(1687630344.609785) can0 10FF031C#0475410F158BD264
(1687630344.610307) can0 10FF011C#55FA3118A9B75EC1
(1687630344.610896) can0 10FF021C#504E07008E970002
(1687630344.619757) can0 0CF00400#607D93FB18000F94
(1687630344.639781) can0 0CF00400#507D931719000F94
(1687630344.655262) can0 18FEF100#FF0000FCFF3D00CF
(1687630344.659716) can0 0CF00400#407D932319000F93
(1687630344.679863) can0 0CF00400#507D930019000F94
(1687630344.699956) can0 0CF00400#107D94F118000F94
(1687630344.704309) can0 10FF031C#04D48501168BD264
(1687630344.704864) can0 10FF011C#3FFA311899B75EC1
(1687630344.705425) can0 10FF021C#A05609008E970002
(1687630344.719765) can0 0CF00400#007D94E018000F94
(1687630344.739894) can0 0CF00400#707D94B018000F95
(1687630344.755249) can0 18FEF100#FF0000FCFF3D00CF
(1687630344.759782) can0 0CF00400#607D94DE18000F95
(1687630344.779775) can0 0CF00400#207D940019000F94
(1687630344.799981) can0 0CF00400#607D932319000F94
(1687630344.804727) can0 10FF031C#04740C03168BD264
(1687630344.805309) can0 10FF011C#2DFA311890B75EC1
(1687630344.805834) can0 10FF021C#E06F0A008E970002
(1687630344.834870) can0 0CF00400#307D934119000F93
(1687630344.839776) can0 0CF00400#507D932319000F94
(1687630344.855288) can0 18FEF100#FF0000FCFF3D00CF
(1687630344.859667) can0 0CF00400#707D932919000F94
(1687630344.879815) can0 0CF00400#207D94EA18000F94
(1687630344.900454) can0 0CF00400#707D94E218000F95
(1687630344.904675) can0 10FF031C#04149304168BD264
(1687630344.905197) can0 10FF011C#1AFA311877B75EC1
(1687630344.905758) can0 10FF021C#109203008E970002
(1687630344.919784) can0 0CF00400#607D94F118000F95
(1687630344.939820) can0 0CF00400#407D940819000F94
(1687630344.955279) can0 18FEF100#FF0000FCFF3D00CF
(1687630344.959740) can0 0CF00400#207D942119000F94
(1687630344.979774) can0 0CF00400#607D932C19000F94
(1687630345.000002) can0 0CF00400#607D932D19000F94
(1687630345.004421) can0 10FF031C#04B41906168BD264
(1687630345.004945) can0 10FF011C#05FA311865B75EC1
(1687630345.005539) can0 10FF021C#C0B007008E970002
(1687630345.034490) can0 0CF00400#307D932E19000F93
(1687630345.039856) can0 0CF00400#407D932719000F93
(1687630345.055258) can0 18FEF100#FF0000FCFF3D00CF
(1687630345.059820) can0 0CF00400#707D924919000F93
(1687630345.079814) can0 0CF00400#207D926B19000F92
(1687630345.101039) can0 0CF00400#507D917819000F92
(1687630345.104676) can0 10FF031C#0454A007168BD264
(1687630345.105259) can0 10FF011C#F3F9311854B75EC1
(1687630345.105792) can0 10FF021C#70A805008E970002
(1687630345.119832) can0 0CF00400#307D917519000F91
(1687630345.139867) can0 0CF00400#607D915519000F92
(1687630345.155247) can0 18FEF100#FF0000FCFF3D00CF
(1687630345.159799) can0 0CF00400#707D913F19000F92
(1687630345.179824) can0 0CF00400#407D92ED18000F93
(1687630345.200529) can0 0CF00400#107D93F618000F93
(1687630345.204098) can0 10FF031C#04F42609168BD264
(1687630345.204677) can0 10FF011C#E2F9311848B75EC1
(1687630345.205214) can0 10FF021C#200508008E970002
(1687630345.219812) can0 0CF00400#707D920519000F93
(1687630345.239863) can0 0CF00400#707D920C19000F93
(1687630345.255281) can0 18FEF100#FF0000FCFF3D00CF
(1687630345.259789) can0 0CF00400#607D922519000F93
(1687630345.279836) can0 0CF00400#607D920A19000F93
(1687630345.299997) can0 0CF00400#107D930919000F93
(1687630345.304739) can0 10FF031C#0494AD0A168BD264
(1687630345.305270) can0 10FF011C#D4F931183DB75EC1
(1687630345.305863) can0 10FF021C#00E907008E970002
(1687630345.334817) can0 0CF00400#207D93F218000F93
(1687630345.339849) can0 0CF00400#107D94CC18000F94
(1687630345.355242) can0 18FEF100#FF0000FCFF3D00CF
(1687630345.359792) can0 0CF00400#007D94E518000F94
(1687630345.379916) can0 0CF00400#507D930319000F94
(1687630345.400000) can0 0CF00400#307D931819000F93
(1687630345.404754) can0 10FF031C#0434340C168BD264
(1687630345.405280) can0 10FF011C#C6F931182BB75EC1
(1687630345.405870) can0 10FF021C#508C05008E970002
(1687630345.419812) can0 0CF00400#207D931F19000F93
(1687630345.439862) can0 0CF00400#407D930919000F94
(1687630345.455244) can0 18FEF100#FF0000FCFF3D00CF
(1687630345.459950) can0 0CF00400#507D930219000F94
(1687630345.479886) can0 0CF00400#007D94D318000F94
(1687630345.500025) can0 0CF00400#207D94E018000F94
(1687630345.504691) can0 10FF031C#04D5BA0D168BD264
(1687630345.505273) can0 10FF011C#ADF9311812B75EC1
(1687630345.505802) can0 10FF021C#508C05008E970002
(1687630345.534831) can0 0CF00400#007D94FB18000F94
(1687630345.539843) can0 0CF00400#507D932219000F94
(1687630345.555830) can0 18FEF100#FF0000FCFF3D00CF
(1687630345.559781) can0 0CF00400#207D933119000F93
(1687630345.579913) can0 0CF00400#207D931719000F93
(1687630345.600548) can0 0CF00400#507D930F19000F94
(1687630345.609272) can0 10FF031C#0476410F168BD264
(1687630345.609852) can0 10FF011C#97F93118FEB65EC1
(1687630345.610381) can0 10FF021C#504E07008E970002
(1687630345.619852) can0 0CF00400#607D93F018000F94
(1687630345.639881) can0 0CF00400#507D94D118000F95
(1687630345.654679) can0 18FEF100#FF0000FCFF3D00CF
(1687630345.659812) can0 0CF00400#307D94F218000F94
(1687630345.679962) can0 0CF00400#107D940219000F94
(1687630345.700498) can0 0CF00400#607D931E19000F94
(1687630345.704506) can0 10FF031C#04D58501178BD264
(1687630345.705029) can0 10FF011C#93F93118FCB65EC1
(1687630345.705622) can0 10FF021C#303207008E970002
(1687630345.734592) can0 0CF00400#207D933819000F93
(1687630345.739962) can0 0CF00400#407D932A19000F93
(1687630345.754644) can0 18FEF100#FF0000FCFF3D00CF
(1687630345.759864) can0 0CF00400#107D933F19000F93
(1687630345.779884) can0 0CF00400#107D931419000F93
(1687630345.800507) can0 0CF00400#107D932D19000F93
(1687630345.804912) can0 10FF031C#04750C03178BD264
(1687630345.805432) can0 10FF011C#83F93118EEB65EC1
(1687630345.806022) can0 10FF021C#109A0A008E970002
(1687630345.819835) can0 0CF00400#507D924619000F93
(1687630345.839924) can0 0CF00400#207D925519000F92
(1687630345.854648) can0 18FEF100#FF0000FCFF3D00CF
(1687630345.859853) can0 0CF00400#107D925419000F92
(1687630345.879907) can0 0CF00400#107D923619000F92
(1687630345.900465) can0 0CF00400#507D921619000F93
(1687630345.904802) can0 10FF031C#04159304178BD264
(1687630345.905380) can0 10FF011C#6BF93118DCB65EC1
(1687630345.905913) can0 10FF021C#301308008E970002
(1687630345.934936) can0 0CF00400#107D93DD18000F93
(1687630345.939941) can0 0CF00400#007D94B918000F94
(1687630345.954679) can0 18FEF100#FF0000FCFF3D00CF
(1687630345.959849) can0 0CF00400#007D94C518000F94
(1687630345.979913) can0 0CF00400#607D93DC18000F94
(1687630346.000001) can0 0CF00400#507D93F118000F94
(1687630346.004725) can0 10FF031C#04B51906178BD264
(1687630346.005307) can0 10FF011C#66F93118DDB65EC1
(1687630346.005837) can0 10FF021C#109203008E970002
(1687630346.021947) can0 0CF00400#407D93F818000F94
(1687630346.039814) can0 0CF00400#007D94E718000F94
(1687630346.054543) can0 18FEF100#FF0000FCFF3D00CF
(1687630346.059773) can0 0CF00400#007D94EB18000F94
(1687630346.079823) can0 0CF00400#407D94B818000F94
(1687630346.100888) can0 0CF00400#607D94DD18000F95
(1687630346.104542) can0 10FF031C#0455A007178BD264
(1687630346.105069) can0 10FF011C#5FF93118D5B65EC1
(1687630346.105658) can0 10FF021C#706A07008E970002
(1687630346.134622) can0 0CF00400#307D94F818000F94
(1687630346.139934) can0 0CF00400#207D941319000F94
(1687630346.154522) can0 18FEF100#FF0000FCFF3D00CF
(1687630346.159766) can0 0CF00400#707D933919000F94
(1687630346.179795) can0 0CF00400#607D931F19000F94
(1687630346.199975) can0 0CF00400#007D942219000F94
(1687630346.204080) can0 10FF031C#04F52609178BD264
(1687630346.204627) can0 10FF011C#56F93118DAB65EC1
(1687630346.205226) can0 10FF021C#000807008E970002
(1687630346.219803) can0 0CF00400#007D940C19000F94
(1687630346.239882) can0 0CF00400#507D94F418000F95
(1687630346.254519) can0 18FEF100#FF0000FCFF3D00CF
(1687630346.259828) can0 0CF00400#207D941019000F94
(1687630346.279806) can0 0CF00400#607D933019000F94
(1687630346.299993) can0 0CF00400#207D934C19000F93
(1687630346.304572) can0 10FF031C#0495AD0A178BD264
(1687630346.305151) can0 10FF011C#44F93118DDB65EC1
(1687630346.305682) can0 10FF021C#D08009008E970002
(1687630346.334707) can0 0CF00400#607D925E19000F93
(1687630346.339838) can0 0CF00400#407D925219000F93
(1687630346.354551) can0 18FEF100#FF0000FCFF3D00CF
(1687630346.359753) can0 0CF00400#307D924319000F92
(1687630346.379852) can0 0CF00400#607D921319000F93
(1687630346.399973) can0 0CF00400#507D921F19000F93
(1687630346.404537) can0 10FF031C#0435340C178BD264
(1687630346.405100) can0 10FF011C#2FF93118F8B65EC1
(1687630346.405671) can0 10FF021C#B07C1E008E970002
(1687630346.419784) can0 0CF00400#307D922919000F92
(1687630346.439853) can0 0CF00400#007D923019000F92
(1687630346.454545) can0 18FEF100#FF0000FCFF3D00CF
(1687630346.459771) can0 0CF00400#707D913719000F92
(1687630346.479929) can0 0CF00400#007D921719000F92
(1687630346.500000) can0 0CF00400#407D920719000F92
(1687630346.504645) can0 10FF031C#04D5BA0D178BD264
(1687630346.505176) can0 10FF011C#26F9311805B75EC1
(1687630346.505761) can0 10FF021C#B0C223008E970002
(1687630346.534726) can0 0CF00400#007D93CF18000F93
(1687630346.539878) can0 0CF00400#007D94B218000F94
(1687630346.555087) can0 18FEF100#FF0000FCFF3D00CF
(1687630346.559815) can0 0CF00400#607D93CA18000F94
(1687630346.579858) can0 0CF00400#707D93D518000F94
(1687630346.600472) can0 0CF00400#707D93F418000F94
(1687630346.609222) can0 10FF031C#0476410F178BD264
(1687630346.609777) can0 10FF011C#17F931180BB75EC1
(1687630346.610338) can0 10FF021C#700E27008E970002
(1687630346.619809) can0 0CF00400#607D93F918000F94
(1687630346.639937) can0 0CF00400#307D94E518000F94
(1687630346.654500) can0 18FEF100#FF0000FCFF3D00CF
(1687630346.659804) can0 0CF00400#407D94E718000F94
(1687630346.679898) can0 0CF00400#207D959E18000F95
(1687630346.700998) can0 0CF00400#707D95B218000F96
(1687630346.703872) can0 10FF031C#04D58501188BD264
(1687630346.704459) can0 10FF011C#0CF9311811B75EC1
(1687630346.704997) can0 10FF021C#D04328008E970002
(1687630346.719839) can0 0CF00400#607D95D418000F96
(1687630346.739933) can0 0CF00400#207D95F918000F95
(1687630346.754510) can0 18FEF100#FF0000FCFF3D00CF
(1687630346.759784) can0 0CF00400#707D941D19000F95
(1687630346.779894) can0 0CF00400#307D943019000F94
(1687630346.800021) can0 0CF00400#007D943D19000F94
(1687630346.804546) can0 10FF031C#04750C03188BD264
(1687630346.805075) can0 10FF011C#F9F8311816B75EC1
(1687630346.805634) can0 10FF021C#E0D52B008E970002
(1687630346.834615) can0 0CF00400#607D932F19000F94
(1687630346.839879) can0 0CF00400#507D933219000F94
(1687630346.854518) can0 18FEF100#FF0000FCFF3D00CF
(1687630346.859799) can0 0CF00400#707D924719000F93
(1687630346.879899) can0 0CF00400#207D926319000F92
(1687630346.900309) can0 0CF00400#507D916F19000F92
(1687630346.904592) can0 10FF031C#04159304188BD264
(1687630346.905125) can0 10FF011C#EAF831181DB75EC1
(1687630346.905713) can0 10FF021C#40EC2D008E970002
(1687630346.919851) can0 0CF00400#307D915A19000F91
(1687630346.939931) can0 0CF00400#607D912D19000F92
(1687630346.954486) can0 18FEF100#FF0000FCFF3D00CF
(1687630346.959867) can0 0CF00400#707D910F19000F92
(1687630346.979864) can0 0CF00400#507D92C318000F93
(1687630347.000002) can0 0CF00400#107D93D518000F93
(1687630347.004105) can0 10FF031C#04B51906188BD264
(1687630347.004695) can0 10FF011C#DCF8311826B75EC1
(1687630347.005230) can0 10FF021C#106530008E970002
(1687630347.034217) can0 0CF00400#007D93DA18000F93
(1687630347.039788) can0 0CF00400#107D93E618000F93
(1687630347.054372) can0 18FEF100#FF0000FCFF3D00CF
(1687630347.059784) can0 0CF00400#007D93FD18000F93
(1687630347.079749) can0 0CF00400#207D93E318000F93
(1687630347.100770) can0 0CF00400#607D93EF18000F94
(1687630347.104128) can0 10FF031C#0455A007188BD264
(1687630347.104713) can0 10FF011C#D0F8311832B75EC1
(1687630347.105251) can0 10FF021C#00FA32008E970002
(1687630347.119767) can0 0CF00400#007D94CD18000F94
(1687630347.139863) can0 0CF00400#707D94BC18000F95
(1687630347.154409) can0 18FEF100#FF0000FCFF3D00CF
(1687630347.159734) can0 0CF00400#507D94D318000F95
(1687630347.179785) can0 0CF00400#407D94EB18000F95
(1687630347.199927) can0 0CF00400#307D940119000F94
(1687630347.204422) can0 10FF031C#04F52609188BD264
(1687630347.204961) can0 10FF011C#C1F831183DB75EC1
(1687630347.205560) can0 10FF021C#601035008E970002
(1687630347.234502) can0 0CF00400#207D941019000F94
(1687630347.239838) can0 0CF00400#307D940619000F94
(1687630347.254366) can0 18FEF100#FF0000FCFF3D00CF
(1687630347.259813) can0 0CF00400#307D94FF18000F94
(1687630347.279823) can0 0CF00400#507D94DE18000F95
(1687630347.299933) can0 0CF00400#407D94FE18000F95
(1687630347.304137) can0 10FF031C#0495AD0A188BD264
(1687630347.304666) can0 10FF011C#B1F8311844B75EC1
(1687630347.305250) can0 10FF021C#10AB35008E970002
(1687630347.319762) can0 0CF00400#107D942019000F94
(1687630347.339848) can0 0CF00400#207D934719000F93
(1687630347.354373) can0 18FEF100#FF0000FCFF3D00CF
(1687630347.359750) can0 0CF00400#607D926019000F93
(1687630347.379805) can0 0CF00400#307D925219000F92
(1687630347.399971) can0 0CF00400#307D925219000F92
(1687630347.404111) can0 10FF031C#0435340C188BD264
(1687630347.404693) can0 10FF011C#A2F8311854B75EC1
(1687630347.405231) can0 10FF021C#407838008E970002
(1687630347.434245) can0 0CF00400#307D921919000F92
(1687630347.439831) can0 0CF00400#007D930119000F93
(1687630347.454351) can0 18FEF100#FF0000FCFF3D00CF
(1687630347.459747) can0 0CF00400#407D921519000F92
(1687630347.479797) can0 0CF00400#207D921719000F92
(1687630347.499989) can0 0CF00400#107D922819000F92
(1687630347.504134) can0 10FF031C#04D5BA0D188BD264
(1687630347.504724) can0 10FF011C#94F831185FB75EC1
(1687630347.505257) can0 10FF021C#10103A008E970002
(1687630347.519823) can0 0CF00400#107D921819000F92
(1687630347.539830) can0 0CF00400#507D92FC18000F93
(1687630347.554959) can0 18FEF100#FF0000FCFF3D00CF
(1687630347.559753) can0 0CF00400#507D92F418000F93
(1687630347.579832) can0 0CF00400#407D93AE18000F93
(1687630347.600297) can0 0CF00400#707D93C118000F94
(1687630347.608663) can0 10FF031C#0476410F188BD264
(1687630347.609183) can0 10FF011C#88F8311865B75EC1
(1687630347.609775) can0 10FF021C#70A238008E970002
(1687630347.638731) can0 0CF00400#707D93D618000F94
(1687630347.639861) can0 0CF00400#607D93EA18000F94
(1687630347.654340) can0 18FEF100#FF0000FCFF3D00CF
(1687630347.659782) can0 0CF00400#507D93FE18000F94
(1687630347.679826) can0 0CF00400#607D93F018000F94
(1687630347.700843) can0 0CF00400#107D94EE18000F94
(1687630347.704444) can0 10FF031C#04D58501198BD264
(1687630347.704967) can0 10FF011C#78F8311864B75EC1
(1687630347.705553) can0 10FF021C#C02637008E970002
(1687630347.719763) can0 0CF00400#307D94CE18000F94
(1687630347.739898) can0 0CF00400#007D95C618000F95
(1687630347.754351) can0 18FEF100#FF0000FCFF3D00CF
(1687630347.759844) can0 0CF00400#607D94D718000F95
(1687630347.779995) can0 0CF00400#407D94F818000F94
(1687630347.800019) can0 0CF00400#207D941319000F94
(1687630347.804802) can0 10FF031C#04750C03198BD264
(1687630347.805383) can0 10FF011C#6FF831185DB75EC1
(1687630347.805916) can0 10FF021C#505F32008E970002
(1687630347.819787) can0 0CF00400#007D941B19000F94
(1687630347.839806) can0 0CF00400#107D940D19000F94
(1687630347.854371) can0 18FEF100#FF0000FCFF3D00CF
(1687630347.859752) can0 0CF00400#107D940A19000F94
(1687630347.880211) can0 0CF00400#407D94D418000F95
(1687630347.900156) can0 0CF00400#407D940319000F94
(1687630347.904084) can0 10FF031C#04159304198BD264
(1687630347.904675) can0 10FF011C#6BF8311860B75EC1
(1687630347.905208) can0 10FF021C#80052F008E970002
(1687630347.934210) can0 0CF00400#607D931F19000F94
(1687630347.939873) can0 0CF00400#307D933419000F93
(1687630347.954362) can0 18FEF100#FF0000FCFF3D00CF
(1687630347.959836) can0 0CF00400#507D925819000F93
(1687630347.979846) can0 0CF00400#307D924619000F92
(1687630348.000002) can0 0CF00400#307D924D19000F92
(1687630348.003969) can0 10FF031C#04B51906198BD264
(1687630348.004496) can0 10FF011C#6DF8311865B75EC1
(1687630348.005089) can0 10FF021C#80BF29008E970002
(1687630348.019752) can0 0CF00400#207D922319000F92
(1687630348.039834) can0 0CF00400#607D921219000F93
(1687630348.054274) can0 18FEF100#FF0000FCFF3D00CF
(1687630348.059768) can0 0CF00400#207D922619000F92
(1687630348.079730) can0 0CF00400#007D923519000F92
(1687630348.100619) can0 0CF00400#707D913719000F92
(1687630348.103858) can0 10FF031C#0455A007198BD264
(1687630348.104411) can0 10FF011C#57F8311869B75EC1
(1687630348.104997) can0 10FF021C#30DE2D008E970002
(1687630348.133963) can0 0CF00400#007D922019000F92
(1687630348.139919) can0 0CF00400#407D92FA18000F93
(1687630348.154261) can0 18FEF100#FF0000FCFF3D00CF
(1687630348.159791) can0 0CF00400#007D93D918000F93
(1687630348.179782) can0 0CF00400#707D939818000F94
(1687630348.199963) can0 0CF00400#207D94A618000F94
(1687630348.204024) can0 10FF031C#04F52609198BD264
(1687630348.204611) can0 10FF011C#43F8311871B75EC1
(1687630348.205138) can0 10FF021C#90D530008E970002
(1687630348.219822) can0 0CF00400#207D94BA18000F94
(1687630348.239834) can0 0CF00400#707D93D618000F94
(1687630348.254291) can0 18FEF100#FF0000FCFF3D00CF
(1687630348.259821) can0 0CF00400#707D93E818000F94
(1687630348.279809) can0 0CF00400#007D94D718000F94
(1687630348.299980) can0 0CF00400#307D94E418000F94
(1687630348.303883) can0 10FF031C#0495AD0A198BD264
(1687630348.304440) can0 10FF011C#33F831187BB75EC1
(1687630348.304998) can0 10FF021C#504033008E970002
(1687630348.334022) can0 0CF00400#407D94C518000F94
(1687630348.339860) can0 0CF00400#207D95BF18000F95
(1687630348.354302) can0 18FEF100#FF0000FCFF3D00CF
(1687630348.359748) can0 0CF00400#507D94EE18000F95
(1687630348.379814) can0 0CF00400#207D940919000F94
(1687630348.399890) can0 0CF00400#007D943619000F94
(1687630348.403968) can0 10FF031C#0435340C198BD264
(1687630348.404495) can0 10FF011C#22F8311889B75EC1
(1687630348.405076) can0 10FF021C#50E335008E970002
(1687630348.419767) can0 0CF00400#407D934619000F94
(1687630348.439848) can0 0CF00400#707D932F19000F94
(1687630348.454247) can0 18FEF100#FF0000FCFF3D00CF
(1687630348.459771) can0 0CF00400#607D932F19000F94
(1687630348.479810) can0 0CF00400#207D94F118000F94
(1687630348.499980) can0 0CF00400#307D940919000F94
(1687630348.503754) can0 10FF031C#04D5BA0D198BD264
(1687630348.504308) can0 10FF011C#10F8311893B75EC1
(1687630348.504877) can0 10FF021C#205C38008E970002
(1687630348.533865) can0 0CF00400#007D941819000F94
(1687630348.539844) can0 0CF00400#407D932D19000F93
(1687630348.554885) can0 18FEF100#FF0000FCFF3D00CF
(1687630348.559811) can0 0CF00400#707D924919000F93
(1687630348.579812) can0 0CF00400#407D924819000F93
(1687630348.600230) can0 0CF00400#307D924319000F92
(1687630348.608184) can0 10FF031C#0476410F198BD264
(1687630348.608769) can0 10FF011C#FCF731189FB75EC1
(1687630348.609305) can0 10FF021C#C06C3C0056AA0002
(1687630348.619826) can0 0CF00400#407D921A19000F92
(1687630348.639851) can0 0CF00400#607D920D19000F93
(1687630348.654293) can0 18FEF100#FF0000FCFF3D00CF
(1687630348.659776) can0 0CF00400#407D921519000F92
(1687630348.679865) can0 0CF00400#207D922019000F92
(1687630348.700167) can0 0CF00400#207D922019000F92
(1687630348.703569) can0 10FF031C#03D585011A8BD264
(1687630348.733602) can0 0CF00400#307D920519000F92
(1687630348.740057) can0 0CF00400#007D93EB18000F93
(1687630348.754258) can0 18FEF100#FF0000FCFF3D00CF
(1687630348.759857) can0 0CF00400#107D93D018000F93
(1687630348.779871) can0 0CF00400#007D949418000F94
(1687630348.800005) can0 0CF00400#207D94BA18000F94
(1687630348.803531) can0 10FF031C#03750C031A8BD264
(1687630348.819832) can0 0CF00400#707D93D818000F94
(1687630348.839902) can0 0CF00400#607D93F718000F94
(1687630348.854284) can0 18FEF100#FF0000FCFF3D00CF
(1687630348.859846) can0 0CF00400#207D932419000F93
(1687630348.879833) can0 0CF00400#307D930D19000F93
(1687630348.900119) can0 0CF00400#607D931A19000F94
(1687630348.903471) can0 10FF031C#031593041A8BD264
(1687630348.933565) can0 0CF00400#707D93F418000F94
(1687630348.939887) can0 0CF00400#607D94DE18000F95
(1687630348.954305) can0 18FEF100#FF0000FCFF3D00CF
(1687630348.959840) can0 0CF00400#407D94F118000F94
(1687630348.979884) can0 0CF00400#307D940219000F94
(1687630349.000001) can0 0CF00400#207D941319000F94
(1687630349.003461) can0 10FF031C#03B519061A8BD264
(1687630349.019735) can0 0CF00400#107D941319000F94
(1687630349.039783) can0 0CF00400#207D940219000F94
(1687630349.054187) can0 18FEF100#FF0000FCFF3D00CF
(1687630349.059743) can0 0CF00400#107D940019000F94
(1687630349.079783) can0 0CF00400#307D94E018000F94
(1687630349.100524) can0 0CF00400#107D940119000F94
(1687630349.102902) can0 10FF031C#0355A0071A8BD264
(1687630349.119768) can0 0CF00400#507D932019000F94
(1687630349.139869) can0 0CF00400#607D924719000F93
(1687630349.154174) can0 18FEF100#FF0000FCFF3D00CF
(1687630349.159747) can0 0CF00400#107D926119000F92
(1687630349.179762) can0 0CF00400#707D915519000F92
(1687630349.199956) can0 0CF00400#007D924A19000F92
(1687630349.203358) can0 10FF031C#03F526091A8BD264
(1687630349.233453) can0 0CF00400#107D920C19000F92
(1687630349.239833) can0 0CF00400#707D92FB18000F93
(1687630349.254198) can0 18FEF100#FF0000FCFF3D00CF
(1687630349.259785) can0 0CF00400#407D920519000F93
(1687630349.279816) can0 0CF00400#507D92FD18000F93
(1687630349.299933) can0 0CF00400#607D921219000F93
(1687630349.303561) can0 10FF031C#0395AD0A1A8BD264
(1687630349.319806) can0 0CF00400#407D920419000F93
(1687630349.339819) can0 0CF00400#107D93EB18000F93
(1687630349.354182) can0 18FEF100#FF0000FCFF3D00CF
(1687630349.359743) can0 0CF00400#107D93E518000F93
(1687630349.379813) can0 0CF00400#007D94AA18000F94
(1687630349.399935) can0 0CF00400#207D94C618000F94
(1687630349.403481) can0 10FF031C#0335340C1A8BD264
(1687630349.433508) can0 0CF00400#007D94E218000F94
(1687630349.439844) can0 0CF00400#707D93F518000F94
(1687630349.454155) can0 18FEF100#FF0000FCFF3D00CF
(1687630349.459752) can0 0CF00400#507D930F19000F94
(1687630349.479812) can0 0CF00400#607D930419000F94
(1687630349.499976) can0 0CF00400#007D940319000F94
(1687630349.503418) can0 10FF031C#03D5BA0D1A8BD264
(1687630349.519773) can0 0CF00400#307D94D318000F94
(1687630349.539818) can0 0CF00400#007D95C818000F95
(1687630349.554737) can0 18FEF100#FF0000FCFF3D00CF
(1687630349.559754) can0 0CF00400#507D94E118000F95
(1687630349.579820) can0 0CF00400#207D940A19000F94
(1687630349.600093) can0 0CF00400#607D933019000F94
(1687630349.607532) can0 10FF031C#0376410F1A8BD264
(1687630349.637618) can0 0CF00400#207D933D19000F93
(1687630349.639829) can0 0CF00400#107D933519000F93
(1687630349.654171) can0 18FEF100#FF0000FCFF3D00CF
(1687630349.659755) can0 0CF00400#707D922A19000F93
(1687630349.679970) can0 0CF00400#307D93F518000F93
(1687630349.700036) can0 0CF00400#307D931419000F93
(1687630349.703541) can0 10FF031C#03D585011B8BD264
(1687630349.719804) can0 0CF00400#007D931819000F93
(1687630349.739922) can0 0CF00400#707D922219000F93
(1687630349.754162) can0 18FEF100#FF0000FCFF3D00CF
(1687630349.759851) can0 0CF00400#407D923A19000F92
(1687630349.779829) can0 0CF00400#507D921919000F93
(1687630349.800044) can0 0CF00400#007D931819000F93
(1687630349.803413) can0 10FF031C#03750C031B8BD264
(1687630349.819832) can0 0CF00400#207D93E418000F93
(1687630349.839885) can0 0CF00400#107D94CD18000F94
(1687630349.854121) can0 18FEF100#FF0000FCFF3D00CF
(1687630349.859834) can0 0CF00400#007D94E318000F94
(1687630349.879877) can0 0CF00400#707D93F318000F94
(1687630349.900034) can0 0CF00400#707D930719000F94
(1687630349.903504) can0 10FF031C#031593041B8BD264
(1687630349.933586) can0 0CF00400#707D930D19000F94
(1687630349.939931) can0 0CF00400#107D94FD18000F94
(1687630349.954157) can0 18FEF100#FF0000FCFF3D00CF
(1687630349.959807) can0 0CF00400#207D94ED18000F94
(1687630349.979886) can0 0CF00400#007D95C618000F95
(1687630350.000002) can0 0CF00400#107D95E318000F95
(1687630350.003297) can0 10FF031C#03B519061B8BD264
(1687630350.019732) can0 0CF00400#707D94F918000F95
(1687630350.039825) can0 0CF00400#407D941519000F95
(1687630350.054047) can0 18FEF100#FF0000FCFF3D00CF
(1687630350.059770) can0 0CF00400#107D942C19000F94
(1687630350.079793) can0 0CF00400#207D941D19000F94
(1687630350.100412) can0 0CF00400#307D942519000F94
(1687630350.102842) can0 10FF031C#0355A0071B8BD264
(1687630350.119774) can0 0CF00400#407D94F818000F94
(1687630350.139894) can0 0CF00400#007D95F818000F95
(1687630350.154046) can0 18FEF100#FF0000FCFF3D00CF
(1687630350.159760) can0 0CF00400#307D941819000F94
(1687630350.179779) can0 0CF00400#107D941F19000F94
(1687630350.199944) can0 0CF00400#707D934219000F94
(1687630350.203363) can0 10FF031C#03F526091B8BD264
(1687630350.233447) can0 0CF00400#307D933919000F93
(1687630350.239814) can0 0CF00400#507D932819000F94
(1687630350.254068) can0 18FEF100#FF0000FCFF3D00CF
(1687630350.259794) can0 0CF00400#207D932619000F93
(1687630350.279814) can0 0CF00400#507D93F218000F94
(1687630350.299946) can0 0CF00400#407D930D19000F94
(1687630350.303446) can0 10FF031C#0395AD0A1B8BD264
(1687630350.319777) can0 0CF00400#007D932819000F93
(1687630350.339837) can0 0CF00400#407D923419000F92
(1687630350.354030) can0 18FEF100#FF0000FCFF3D00CF
(1687630350.359759) can0 0CF00400#107D924919000F92
(1687630350.379794) can0 0CF00400#007D923D19000F92
(1687630350.399970) can0 0CF00400#107D923B19000F92
(1687630350.403365) can0 10FF031C#0335340C1B8BD264
(1687630350.433395) can0 0CF00400#307D920B19000F92
(1687630350.439829) can0 0CF00400#707D92FD18000F93
(1687630350.454035) can0 18FEF100#FF0000FCFF3D00CF
(1687630350.459808) can0 0CF00400#607D92FE18000F93
(1687630350.479790) can0 0CF00400#707D920419000F93
(1687630350.499999) can0 0CF00400#707D921119000F93
(1687630350.503566) can0 10FF031C#03D5BA0D1B8BD264
(1687630350.519824) can0 0CF00400#007D93F318000F93
(1687630350.539825) can0 0CF00400#607D93DD18000F94
(1687630350.554626) can0 18FEF100#FF0000FCFF3D00CF
(1687630350.559788) can0 0CF00400#707D93C918000F94
(1687630350.579833) can0 0CF00400#607D949618000F95
(1687630350.600025) can0 0CF00400#607D94BE18000F95
(1687630350.607303) can0 10FF031C#0377410F1B8BD264
(1687630350.637324) can0 0CF00400#407D94D518000F94
(1687630350.639839) can0 0CF00400#107D94F518000F94
(1687630350.654010) can0 18FEF100#FF0000FCFF3D00CF
(1687630350.659791) can0 0CF00400#507D931B19000F94
(1687630350.679826) can0 0CF00400#607D930D19000F94
(1687630350.700500) can0 0CF00400#707D931B19000F94
(1687630350.703440) can0 10FF031C#03D685011C8BD264
(1687630350.719808) can0 0CF00400#007D94E618000F94
(1687630350.739929) can0 0CF00400#507D94E318000F95
(1687630350.754012) can0 18FEF100#FF0000FCFF3D00CF
(1687630350.759864) can0 0CF00400#107D940019000F94
(1687630350.779794) can0 0CF00400#507D931519000F94
(1687630350.800000) can0 0CF00400#307D932C19000F93
(1687630350.803424) can0 10FF031C#03760C031C8BD264
(1687630350.819817) can0 0CF00400#007D933319000F93
(1687630350.839833) can0 0CF00400#707D922A19000F93
(1687630350.854035) can0 18FEF100#FF0000FCFF3D00CF
(1687630350.859791) can0 0CF00400#507D922319000F93
(1687630350.879863) can0 0CF00400#007D930219000F93
(1687630350.899972) can0 0CF00400#707D921B19000F93
(1687630350.903728) can0 10FF031C#031693041C8BD264
(1687630350.933779) can0 0CF00400#507D923019000F93
(1687630350.939841) can0 0CF00400#207D923919000F92
(1687630350.954043) can0 18FEF100#FF0000FCFF3D00CF
(1687630350.959824) can0 0CF00400#307D923719000F92
(1687630350.979857) can0 0CF00400#707D920D19000F93
(1687630351.000001) can0 0CF00400#307D930219000F93
(1687630351.003394) can0 10FF031C#03B619061C8BD264
(1687630351.019751) can0 0CF00400#007D94C018000F94
(1687630351.039818) can0 0CF00400#707D94B318000F95
(1687630351.053932) can0 18FEF100#FF0000FCFF3D00CF
(1687630351.059789) can0 0CF00400#507D94C718000F95
(1687630351.079788) can0 0CF00400#507D94D618000F95
(1687630351.100369) can0 0CF00400#507D94FB18000F95
(1687630351.102627) can0 10FF031C#0356A0071C8BD264
(1687630351.119829) can0 0CF00400#307D94F818000F94
(1687630351.139833) can0 0CF00400#607D94F118000F95
(1687630351.153950) can0 18FEF100#FF0000FCFF3D00CF
(1687630351.159734) can0 0CF00400#507D94F218000F95
(1687630351.179780) can0 0CF00400#107D95C818000F95
(1687630351.199941) can0 0CF00400#107D95EB18000F95
(1687630351.203349) can0 10FF031C#03F626091C8BD264
(1687630351.233432) can0 0CF00400#507D940D19000F95
(1687630351.239820) can0 0CF00400#107D942C19000F94
(1687630351.253956) can0 18FEF100#FF0000FCFF3D00CF
(1687630351.259797) can0 0CF00400#307D935519000F93
(1687630351.279802) can0 0CF00400#107D935819000F93
(1687630351.299953) can0 0CF00400#007D935B19000F93
(1687630351.303307) can0 10FF031C#0396AD0A1C8BD264
(1687630351.319716) can0 0CF00400#007D933519000F93
(1687630351.339845) can0 0CF00400#107D933419000F93
(1687630351.353924) can0 18FEF100#FF0000FCFF3D00CF
(1687630351.359805) can0 0CF00400#507D924419000F93
(1687630351.379810) can0 0CF00400#107D925919000F92
(1687630351.399981) can0 0CF00400#707D916919000F92
(1687630351.403336) can0 10FF031C#0336340C1C8BD264
(1687630351.433414) can0 0CF00400#507D915219000F92
(1687630351.439811) can0 0CF00400#007D923B19000F92
(1687630351.453915) can0 18FEF100#FF0000FCFF3D00CF
(1687630351.459739) can0 0CF00400#007D921319000F92
(1687630351.479813) can0 0CF00400#107D93D818000F93
(1687630351.500012) can0 0CF00400#007D93ED18000F93
(1687630351.503194) can0 10FF031C#03D6BA0D1C8BD264
(1687630351.519761) can0 0CF00400#707D92EF18000F93
(1687630351.539827) can0 0CF00400#707D92F318000F93
(1687630351.554528) can0 18FEF100#FF0000FCFF3D00CF
(1687630351.559781) can0 0CF00400#607D920019000F93
(1687630351.579812) can0 0CF00400#107D93E418000F93
(1687630351.600082) can0 0CF00400#307D93EF18000F93
(1687630351.607154) can0 10FF031C#0377410F1C8BD264
(1687630351.637184) can0 0CF00400#507D93BF18000F94
(1687630351.639878) can0 0CF00400#107D94C718000F94
(1687630351.653900) can0 18FEF100#FF0000FCFF3D00CF
(1687630351.659817) can0 0CF00400#707D93DD18000F94
(1687630351.679816) can0 0CF00400#507D93F918000F94
(1687630351.701045) can0 0CF00400#407D930F19000F94
(1687630351.703379) can0 10FF031C#03D685011D8BD264
(1687630351.719788) can0 0CF00400#307D931319000F93
(1687630351.739858) can0 0CF00400#407D930C19000F94
(1687630351.753899) can0 18FEF100#FF0000FCFF3D00CF
(1687630351.759888) can0 0CF00400#407D930119000F94
(1687630351.779823) can0 0CF00400#107D94DB18000F94
(1687630351.800044) can0 0CF00400#107D94EE18000F94
(1687630351.803273) can0 10FF031C#03760C031D8BD264
(1687630351.819835) can0 0CF00400#007D940919000F94
(1687630351.839833) can0 0CF00400#407D931A19000F94
(1687630351.853935) can0 18FEF100#FF0000FCFF3D00CF
(1687630351.859805) can0 0CF00400#207D932B19000F93
(1687630351.879847) can0 0CF00400#307D931519000F93
(1687630351.899989) can0 0CF00400#307D932319000F93
(1687630351.903311) can0 10FF031C#031693041D8BD264
(1687630351.933349) can0 0CF00400#407D93F018000F94
(1687630351.939868) can0 0CF00400#607D930419000F94
(1687630351.953896) can0 18FEF100#FF0000FCFF3D00CF
(1687630351.959816) can0 0CF00400#107D931C19000F93
(1687630351.979780) can0 0CF00400#107D931E19000F93
(1687630352.000001) can0 0CF00400#707D924019000F93
(1687630352.003348) can0 10FF031C#03B619061D8BD264
(1687630352.019720) can0 0CF00400#507D922319000F93
(1687630352.039810) can0 0CF00400#107D931019000F93
(1687630352.053800) can0 18FEF100#FF0000FCFF3D00CF
(1687630352.059778) can0 0CF00400#107D93F318000F93
(1687630352.079747) can0 0CF00400#707D93C518000F94
(1687630352.100246) can0 0CF00400#707D93D518000F94
(1687630352.103040) can0 10FF031C#0356A0071D8BD264
(1687630352.133124) can0 0CF00400#507D93F118000F94
(1687630352.139846) can0 0CF00400#207D93FF18000F93
(1687630352.153831) can0 18FEF100#FF0000FCFF3D00CF
(1687630352.159723) can0 0CF00400#107D931619000F93
(1687630352.179791) can0 0CF00400#107D931019000F93
(1687630352.199937) can0 0CF00400#307D930C19000F93
(1687630352.203159) can0 10FF031C#03F626091D8BD264
(1687630352.219692) can0 0CF00400#507D93E518000F94
(1687630352.239836) can0 0CF00400#007D94ED18000F94
(1687630352.253800) can0 18FEF100#FF0000FCFF3D00CF
(1687630352.259776) can0 0CF00400#607D930719000F94
(1687630352.279744) can0 0CF00400#407D932119000F93
(1687630352.299948) can0 0CF00400#307D933019000F93
(1687630352.303346) can0 10FF031C#0396AD0A1D8BD264
(1687630352.333381) can0 0CF00400#207D931B19000F93
(1687630352.339830) can0 0CF00400#607D931019000F94
(1687630352.353801) can0 18FEF100#FF0000FCFF3D00CF
(1687630352.359782) can0 0CF00400#507D93FA18000F94
(1687630352.379769) can0 0CF00400#407D94CD18000F94
(1687630352.400001) can0 0CF00400#207D94F318000F94
(1687630352.402995) can0 10FF031C#0336340C1D8BD264
(1687630352.419774) can0 0CF00400#707D930219000F94
(1687630352.439783) can0 0CF00400#407D932119000F94
(1687630352.453813) can0 18FEF100#FF0000FCFF3D00CF
(1687630352.459746) can0 0CF00400#007D933719000F93
(1687630352.479806) can0 0CF00400#307D931C19000F93
(1687630352.499959) can0 0CF00400#207D933219000F93
(1687630352.503082) can0 10FF031C#03D6BA0D1D8BD264
(1687630352.533118) can0 0CF00400#307D93F218000F93
(1687630352.539803) can0 0CF00400#007D94F318000F94
(1687630352.554370) can0 18FEF100#FF0000FCFF3D00CF
(1687630352.559749) can0 0CF00400#607D93FA18000F94
(1687630352.579993) can0 0CF00400#507D930719000F94
(1687630352.599982) can0 0CF00400#507D930D19000F94
(1687630352.607973) can0 10FF031C#0377410F1D8BD264
(1687630352.619778) can0 0CF00400#307D930F19000F93
(1687630352.639855) can0 0CF00400#407D930719000F94
(1687630352.653791) can0 18FEF100#FF0000FCFF3D00CF
(1687630352.659799) can0 0CF00400#407D93F618000F93
(1687630352.680192) can0 0CF00400#007D94E118000F94
(1687630352.700927) can0 0CF00400#607D93F718000F94
(1687630352.703060) can0 10FF031C#03D685011E8BD264
(1687630352.733153) can0 0CF00400#407D931C19000F93
(1687630352.739863) can0 0CF00400#007D933119000F93
(1687630352.753821) can0 18FEF100#FF0000FCFF3D00CF
(1687630352.759772) can0 0CF00400#507D924619000F93
(1687630352.779796) can0 0CF00400#707D922C19000F93
(1687630352.799994) can0 0CF00400#007D932519000F93
(1687630352.804510) can0 10FF031C#03760C031E8BD264
(1687630352.819758) can0 0CF00400#407D93DE18000F94
(1687630352.839797) can0 0CF00400#007D94E918000F94
(1687630352.853804) can0 18FEF100#FF0000FCFF3D00CF
(1687630352.859738) can0 0CF00400#507D93F718000F94
(1687630352.879803) can0 0CF00400#607D93F818000F94
(1687630352.899983) can0 0CF00400#507D931719000F94
(1687630352.903274) can0 10FF031C#031693041E8BD264
(1687630352.933305) can0 0CF00400#307D930419000F93
(1687630352.939904) can0 0CF00400#607D930119000F94
(1687630352.953780) can0 18FEF100#FF0000FCFF3D00CF
(1687630352.959823) can0 0CF00400#607D93F118000F94
(1687630352.979809) can0 0CF00400#407D94CC18000F95
(1687630353.000001) can0 0CF00400#307D94E618000F94
(1687630353.002951) can0 10FF031C#03B619061E8BD264
(1687630353.019811) can0 0CF00400#007D940019000F94
(1687630353.039793) can0 0CF00400#607D930F19000F94
(1687630353.053796) can0 18FEF100#FF0000FCFF3D00CF
(1687630353.059735) can0 0CF00400#507D932019000F94
(1687630353.079757) can0 0CF00400#607D931419000F94
(1687630353.100145) can0 0CF00400#007D940419000F94
(1687630353.103169) can0 10FF031C#0356A0071E8BD264
(1687630353.133261) can0 0CF00400#307D94DC18000F94
(1687630353.139881) can0 0CF00400#507D94E518000F95
(1687630353.153779) can0 18FEF100#FF0000FCFF3D00CF
(1687630353.159778) can0 0CF00400#307D94F418000F94
(1687630353.179822) can0 0CF00400#007D941719000F94
(1687630353.200014) can0 0CF00400#607D932A19000F94
(1687630353.203227) can0 10FF031C#03F626091E8BD264
(1687630353.219753) can0 0CF00400#507D931C19000F94
(1687630353.239866) can0 0CF00400#607D931519000F94
(1687630353.253727) can0 18FEF100#FF0000FCFF3D00CF
(1687630353.259845) can0 0CF00400#607D930119000F94
(1687630353.279759) can0 0CF00400#307D94E218000F94
(1687630353.300026) can0 0CF00400#007D940B19000F94
(1687630353.303227) can0 10FF031C#0396AD0A1E8BD264
(1687630353.333321) can0 0CF00400#507D931419000F94
(1687630353.339832) can0 0CF00400#307D932F19000F93
(1687630353.353761) can0 18FEF100#FF0000FCFF3D00CF
(1687630353.359803) can0 0CF00400#707D923F19000F93
(1687630353.379781) can0 0CF00400#107D932519000F93
(1687630353.400021) can0 0CF00400#107D932D19000F93
(1687630353.403253) can0 10FF031C#0336340C1E8BD264
(1687630353.419863) can0 0CF00400#307D93F018000F93
(1687630353.439854) can0 0CF00400#607D930019000F94
(1687630353.453802) can0 18FEF100#FF0000FCFF3D00CF
(1687630353.459800) can0 0CF00400#307D931219000F93
(1687630353.479849) can0 0CF00400#207D932119000F93
(1687630353.499995) can0 0CF00400#707D923519000F93
(1687630353.503028) can0 10FF031C#03D6BA0D1E8BD264
(1687630353.533056) can0 0CF00400#607D923319000F93
(1687630353.539901) can0 0CF00400#707D922319000F93
(1687630353.554330) can0 18FEF100#FF0000FCFF3D00CF
(1687630353.559838) can0 0CF00400#107D930219000F93
(1687630353.579800) can0 0CF00400#607D93F018000F94
(1687630353.600102) can0 0CF00400#507D93F618000F94
(1687630353.607934) can0 10FF031C#0477410F1E8BD264
(1687630353.608487) can0 10FF011C#F5E331183E9C5EC1
(1687630353.609059) can0 10FF021C#7043010034350002
(1687630353.619787) can0 0CF00400#407D930819000F94
(1687630353.639900) can0 0CF00400#207D931519000F93
(1687630353.653746) can0 18FEF100#FF0000FCFF3D00CF
(1687630353.659856) can0 0CF00400#207D931A19000F93
(1687630353.679851) can0 0CF00400#507D930519000F94
(1687630353.701018) can0 0CF00400#507D930119000F94
(1687630353.703633) can0 10FF031C#04D685011F8BD264
(1687630353.704212) can0 10FF011C#05E431185A9C5EC1
(1687630353.704749) can0 10FF021C#407E050034350002
(1687630353.733780) can0 0CF00400#107D94C818000F94
(1687630353.739897) can0 0CF00400#307D94E518000F94
(1687630353.753771) can0 18FEF100#FF0000FCFF3D00CF
(1687630353.759893) can0 0CF00400#007D940119000F94
(1687630353.779950) can0 0CF00400#707D931019000F94
(1687630353.800059) can0 0CF00400#407D933519000F94
(1687630353.803634) can0 10FF031C#04760C031F8BD264
(1687630353.804165) can0 10FF011C#29E431185F9C5EC1
(1687630353.804736) can0 10FF021C#7005030034350002
(1687630353.819832) can0 0CF00400#407D931719000F93
(1687630353.839876) can0 0CF00400#707D931719000F94
(1687630353.853774) can0 18FEF100#FF0000FCFF3D00CF
(1687630353.859836) can0 0CF00400#607D93FC18000F94
(1687630353.879889) can0 0CF00400#407D94DF18000F94
(1687630353.900092) can0 0CF00400#107D94FB18000F94
(1687630353.903601) can0 10FF031C#041693041F8BD264
(1687630353.904121) can0 10FF011C#3DE43118779C5EC1
(1687630353.904728) can0 10FF021C#C00D050034350002
(1687630353.919846) can0 0CF00400#507D931119000F94
(1687630353.939953) can0 0CF00400#207D932719000F93
(1687630353.953809) can0 18FEF100#FF0000FCFF3D00CF
(1687630353.959899) can0 0CF00400#707D923419000F93
(1687630353.979885) can0 0CF00400#007D932419000F93
(1687630354.000001) can0 0CF00400#007D931919000F93
(1687630354.003038) can0 10FF031C#04B619061F8BD264
(1687630354.003614) can0 10FF011C#5BE43118939C5EC1
(1687630354.004150) can0 10FF021C#E0EB060034350002
(1687630354.033149) can0 0CF00400#307D93E918000F93
(1687630354.039776) can0 0CF00400#507D93F318000F94
(1687630354.053711) can0 18FEF100#FF0000FCFF3D00CF
(1687630354.059787) can0 0CF00400#307D93FE18000F93
(1687630354.079769) can0 0CF00400#107D931119000F93
(1687630354.100569) can0 0CF00400#007D931A19000F93
(1687630354.103865) can0 10FF031C#0456A0071F8BD264
(1687630354.104446) can0 10FF011C#7EE43118A69C5EC1
(1687630354.104977) can0 10FF021C#90E3040034350002
(1687630354.119806) can0 0CF00400#107D93FE18000F93
(1687630354.139868) can0 0CF00400#307D93FA18000F93
(1687630354.153730) can0 18FEF100#FF0000FCFF3D00CF
(1687630354.159745) can0 0CF00400#507D93D818000F94
(1687630354.179794) can0 0CF00400#407D94BC18000F95
(1687630354.199992) can0 0CF00400#207D94E018000F94
(1687630354.203750) can0 10FF031C#04F626091F8BD264
(1687630354.204273) can0 10FF011C#9FE43118B39C5EC1
(1687630354.204875) can0 10FF021C#20A0030034350002
(1687630354.233827) can0 0CF00400#007D94F218000F94
(1687630354.239798) can0 0CF00400#607D931519000F94
(1687630354.253699) can0 18FEF100#FF0000FCFF3D00CF
(1687630354.259912) can0 0CF00400#307D932A19000F93
(1687630354.279801) can0 0CF00400#607D931B19000F94
(1687630354.299992) can0 0CF00400#507D932819000F94
(1687630354.303369) can0 10FF031C#0496AD0A1F8BD264
(1687630354.303883) can0 10FF011C#BCE43118D99C5EC1
(1687630354.304476) can0 10FF021C#702C090034350002
(1687630354.319763) can0 0CF00400#007D94EB18000F94
(1687630354.339842) can0 0CF00400#307D94FE18000F94
(1687630354.353708) can0 18FEF100#FF0000FCFF3D00CF
(1687630354.359788) can0 0CF00400#107D940F19000F94
(1687630354.379787) can0 0CF00400#707D931F19000F94
(1687630354.400015) can0 0CF00400#407D932E19000F94
(1687630354.403423) can0 10FF031C#0436340C1F8BD264
(1687630354.403999) can0 10FF011C#E9E43118E59C5EC1
(1687630354.404535) can0 10FF021C#D059030034350002
(1687630354.419805) can0 0CF00400#307D932019000F93
(1687630354.439778) can0 0CF00400#307D931E19000F93
(1687630354.453718) can0 18FEF100#FF0000FCFF3D00CF
(1687630354.459713) can0 0CF00400#307D930219000F93
(1687630354.479817) can0 0CF00400#707D93EF18000F94
(1687630354.500023) can0 0CF00400#307D930219000F93
(1687630354.503030) can0 10FF031C#04D6BA0D1F8BD264
(1687630354.503610) can0 10FF011C#0FE53118F49C5EC1
(1687630354.504148) can0 10FF021C#C089010034350002
(1687630354.533158) can0 0CF00400#007D932419000F93
(1687630354.539812) can0 0CF00400#407D923919000F93
(1687630354.554311) can0 18FEF100#FF0000FCFF3D00CF
(1687630354.559764) can0 0CF00400#307D923119000F92
(1687630354.579825) can0 0CF00400#607D921319000F93
(1687630354.600075) can0 0CF00400#707D92FF18000F93
(1687630354.608048) can0 10FF031C#0377410F1F8BD264
(1687630354.619724) can0 0CF00400#507D93B218000F94
(1687630354.639816) can0 0CF00400#107D94C618000F94
(1687630354.653735) can0 18FEF100#FF0000FCFF3D00CF
(1687630354.659788) can0 0CF00400#707D93D218000F94
(1687630354.679917) can0 0CF00400#707D93DC18000F94
(1687630354.700093) can0 0CF00400#507D93FF18000F94
(1687630354.702997) can0 10FF031C#03D68501208BD264
(1687630354.733065) can0 0CF00400#507D93EC18000F94
(1687630354.739967) can0 0CF00400#707D93F718000F94
(1687630354.753746) can0 18FEF100#FF0000FCFF3D00CF
(1687630354.759871) can0 0CF00400#607D93E718000F94
(1687630354.779799) can0 0CF00400#407D94D218000F94
(1687630354.800081) can0 0CF00400#207D94EC18000F94
(1687630354.803068) can0 10FF031C#03760C03208BD264
(1687630354.819833) can0 0CF00400#007D94FD18000F94
(1687630354.839860) can0 0CF00400#707D930B19000F94
(1687630354.853781) can0 18FEF100#FF0000FCFF3D00CF
(1687630354.859768) can0 0CF00400#607D931119000F94
(1687630354.879888) can0 0CF00400#007D94FC18000F94
(1687630354.900059) can0 0CF00400#207D94EA18000F94
(1687630354.903130) can0 10FF031C#03169304208BD264
(1687630354.933151) can0 0CF00400#607D94AF18000F95
(1687630354.939937) can0 0CF00400#007D95C418000F95
(1687630354.953722) can0 18FEF100#FF0000FCFF3D00CF
(1687630354.959814) can0 0CF00400#507D94DB18000F95
(1687630354.979866) can0 0CF00400#207D94FC18000F94
(1687630355.000002) can0 0CF00400#607D931D19000F94
(1687630355.002777) can0 10FF031C#03B61906208BD264
(1687630355.019762) can0 0CF00400#407D931919000F93
(1687630355.039832) can0 0CF00400#307D932119000F93
(1687630355.053718) can0 18FEF100#FF0000FCFF3D00CF
(1687630355.059816) can0 0CF00400#307D930219000F93
(1687630355.079827) can0 0CF00400#007D94EC18000F94
(1687630355.100571) can0 0CF00400#507D930F19000F94
(1687630355.103145) can0 10FF031C#0356A007208BD264
(1687630355.133218) can0 0CF00400#207D930F19000F93
(1687630355.139864) can0 0CF00400#207D932319000F93
(1687630355.153762) can0 18FEF100#FF0000FCFF3D00CF
(1687630355.159757) can0 0CF00400#707D922519000F93
(1687630355.179855) can0 0CF00400#207D930819000F93
(1687630355.200016) can0 0CF00400#207D930F19000F93
(1687630355.203086) can0 10FF031C#03F62609208BD264
(1687630355.219988) can0 0CF00400#507D93CD18000F94
(1687630355.239859) can0 0CF00400#107D94DC18000F94
(1687630355.253702) can0 18FEF100#FF0000FCFF3D00CF
(1687630355.259826) can0 0CF00400#607D93F518000F94
(1687630355.279832) can0 0CF00400#507D930B19000F94
(1687630355.300026) can0 0CF00400#307D931E19000F93
(1687630355.303103) can0 10FF031C#0396AD0A208BD264
(1687630355.333135) can0 0CF00400#307D931219000F93
(1687630355.339886) can0 0CF00400#507D930819000F94
(1687630355.353745) can0 18FEF100#FF0000FCFF3D00CF
(1687630355.359831) can0 0CF00400#707D93E818000F94
(1687630355.379800) can0 0CF00400#507D94D118000F95
(1687630355.400071) can0 0CF00400#307D94E118000F94
(1687630355.403042) can0 10FF031C#0336340C208BD264
(1687630355.419862) can0 0CF00400#107D940019000F94
(1687630355.439849) can0 0CF00400#607D931E19000F94
(1687630355.453793) can0 18FEF100#FF0000FCFF3D00CF
(1687630355.459786) can0 0CF00400#307D932919000F93
(1687630355.479898) can0 0CF00400#607D931619000F94
(1687630355.500050) can0 0CF00400#507D931719000F94
(1687630355.502822) can0 10FF031C#03D6BA0D208BD264
(1687630355.532882) can0 0CF00400#007D94DC18000F94
(1687630355.539875) can0 0CF00400#107D940619000F94
(1687630355.554393) can0 18FEF100#FF0000FCFF3D00CF
(1687630355.559799) can0 0CF00400#407D931D19000F93
(1687630355.579861) can0 0CF00400#207D933319000F93
(1687630355.600154) can0 0CF00400#507D925C19000F93
(1687630355.607951) can0 10FF031C#0377410F208BD264
(1687630355.619815) can0 0CF00400#307D924719000F92
(1687630355.639925) can0 0CF00400#407D924C19000F92
(1687630355.653798) can0 18FEF100#FF0000FCFF3D00CF
(1687630355.659848) can0 0CF00400#307D922419000F92
(1687630355.679882) can0 0CF00400#207D93FF18000F93
(1687630355.700615) can0 0CF00400#007D930C19000F93
(1687630355.703022) can0 10FF031C#03D78501218BD264
(1687630355.733120) can0 0CF00400#707D921019000F93
(1687630355.739973) can0 0CF00400#707D920F19000F93
(1687630355.753842) can0 18FEF100#FF0000FCFF3D00CF
(1687630355.759897) can0 0CF00400#007D931019000F93
(1687630355.779895) can0 0CF00400#207D93FA18000F93
(1687630355.800093) can0 0CF00400#407D93E918000F94
(1687630355.803148) can0 10FF031C#03770C03218BD264
(1687630355.819886) can0 0CF00400#207D94B118000F94
(1687630355.839860) can0 0CF00400#507D94C018000F95
(1687630355.853790) can0 18FEF100#FF0000FCFF3D00CF
(1687630355.859796) can0 0CF00400#407D94D518000F95
(1687630355.879881) can0 0CF00400#307D94EC18000F94
(1687630355.900107) can0 0CF00400#107D940319000F94
(1687630355.903316) can0 10FF031C#03179304218BD264
(1687630355.933342) can0 0CF00400#207D94EF18000F94
(1687630355.939981) can0 0CF00400#407D94F618000F95
(1687630355.953812) can0 18FEF100#FF0000FCFF3D00CF
(1687630355.959900) can0 0CF00400#407D94DE18000F94
(1687630355.979891) can0 0CF00400#107D95CC18000F95
(1687630356.000001) can0 0CF00400#407D94FE18000F94
(1687630356.002661) can0 10FF031C#03B71906218BD264
(1687630356.019727) can0 0CF00400#707D931519000F94
(1687630356.039713) can0 0CF00400#207D934A19000F93
(1687630356.053658) can0 18FEF100#FF0000FCFF3D00CF
(1687630356.059736) can0 0CF00400#307D926819000F92
(1687630356.079739) can0 0CF00400#307D926119000F92
(1687630356.100558) can0 0CF00400#707D917019000F92
(1687630356.102927) can0 10FF031C#0357A007218BD264
(1687630356.133013) can0 0CF00400#107D922E19000F92
(1687630356.139789) can0 0CF00400#307D923319000F92
(1687630356.153671) can0 18FEF100#FF0000FCFF3D00CF
(1687630356.159708) can0 0CF00400#207D923219000F92
(1687630356.179759) can0 0CF00400#107D922719000F92
(1687630356.199967) can0 0CF00400#207D922119000F92
(1687630356.203016) can0 10FF031C#03F72609218BD264
(1687630356.219756) can0 0CF00400#407D92FE18000F92
(1687630356.239825) can0 0CF00400#007D93EA18000F93
(1687630356.253655) can0 18FEF100#FF0000FCFF3D00CF
(1687630356.259784) can0 0CF00400#307D93BF18000F93
(1687630356.279761) can0 0CF00400#007D94AD18000F94
(1687630356.299987) can0 0CF00400#607D93C118000F94
(1687630356.303123) can0 10FF031C#0397AD0A218BD264
(1687630356.333185) can0 0CF00400#507D93E218000F94
(1687630356.339800) can0 0CF00400#307D93F718000F93
(1687630356.353725) can0 18FEF100#FF0000FCFF3D00CF
(1687630356.359759) can0 0CF00400#207D93FC18000F93
(1687630356.379783) can0 0CF00400#507D93E918000F94
(1687630356.400027) can0 0CF00400#507D93E918000F94
(1687630356.402881) can0 10FF031C#0337340C218BD264
(1687630356.419787) can0 0CF00400#207D94A518000F94
(1687630356.439792) can0 0CF00400#507D94C718000F95
(1687630356.453694) can0 18FEF100#FF0000FCFF3D00CF
(1687630356.459711) can0 0CF00400#207D94E018000F94
(1687630356.479818) can0 0CF00400#107D94F418000F94
(1687630356.499996) can0 0CF00400#507D932019000F94
(1687630356.502665) can0 10FF031C#03D7BA0D218BD264
(1687630356.532691) can0 0CF00400#407D930D19000F94
(1687630356.539861) can0 0CF00400#607D931D19000F94
(1687630356.554279) can0 18FEF100#FF0000FCFF3D00CF
(1687630356.559784) can0 0CF00400#507D93FD18000F94
(1687630356.579803) can0 0CF00400#307D94E518000F94
(1687630356.600073) can0 0CF00400#007D940019000F94
(1687630356.607858) can0 10FF031C#0378410F218BD264
(1687630356.619768) can0 0CF00400#507D931319000F94
(1687630356.639863) can0 0CF00400#307D932619000F93
(1687630356.653746) can0 18FEF100#FF0000FCFF3D00CF
(1687630356.659786) can0 0CF00400#107D932D19000F93
(1687630356.679796) can0 0CF00400#207D931619000F93
(1687630356.701225) can0 0CF00400#307D930219000F93
(1687630356.703473) can0 10FF031C#03D78501228BD264
(1687630356.733557) can0 0CF00400#707D93C718000F94
(1687630356.739879) can0 0CF00400#207D94D418000F94
(1687630356.753733) can0 18FEF100#FF0000FCFF3D00CF
(1687630356.759844) can0 0CF00400#007D94E618000F94
(1687630356.779857) can0 0CF00400#607D93FD18000F94
(1687630356.799991) can0 0CF00400#307D931719000F93
(1687630356.803283) can0 10FF031C#03770C03228BD264
(1687630356.819794) can0 0CF00400#207D930919000F93
(1687630356.839879) can0 0CF00400#407D930F19000F94
(1687630356.853714) can0 18FEF100#FF0000FCFF3D00CF
(1687630356.859790) can0 0CF00400#407D93EF18000F94
(1687630356.879812) can0 0CF00400#207D94E018000F94
(1687630356.900089) can0 0CF00400#607D930419000F94
(1687630356.903100) can0 10FF031C#03179304228BD264
(1687630356.919782) can0 0CF00400#507D930619000F94
(1687630356.939891) can0 0CF00400#407D932519000F93
(1687630356.953792) can0 18FEF100#FF0000FCFF3D00CF
(1687630356.959830) can0 0CF00400#107D932919000F93
(1687630356.979845) can0 0CF00400#407D931019000F94
(1687630357.000002) can0 0CF00400#407D931219000F93
(1687630357.002934) can0 10FF031C#03B71906228BD264
(1687630357.033032) can0 0CF00400#007D94D518000F94
(1687630357.039823) can0 0CF00400#207D94F018000F94
(1687630357.053777) can0 18FEF100#FF0000FCFF3D00CF
(1687630357.059751) can0 0CF00400#707D930A19000F94
(1687630357.079807) can0 0CF00400#407D932119000F93
(1687630357.100639) can0 0CF00400#107D934019000F93
(1687630357.103195) can0 10FF031C#0357A007228BD264
(1687630357.119785) can0 0CF00400#607D924019000F93
(1687630357.139866) can0 0CF00400#707D923619000F93
(1687630357.153694) can0 18FEF100#FF0000FCFF3D00CF
(1687630357.159692) can0 0CF00400#007D931019000F93
(1687630357.179775) can0 0CF00400#507D93F718000F94
(1687630357.200042) can0 0CF00400#307D93FC18000F93
(1687630357.202972) can0 10FF031C#03F72609228BD264
(1687630357.232993) can0 0CF00400#207D930719000F93
(1687630357.239811) can0 0CF00400#107D931519000F93
(1687630357.253692) can0 18FEF100#FF0000FCFF3D00CF
(1687630357.259831) can0 0CF00400#707D921619000F93
(1687630357.279804) can0 0CF00400#107D930419000F93
(1687630357.300021) can0 0CF00400#007D930519000F93
(1687630357.303031) can0 10FF031C#0397AD0A228BD264
(1687630357.319813) can0 0CF00400#507D93C818000F94
(1687630357.339836) can0 0CF00400#707D93E818000F94
(1687630357.353793) can0 18FEF100#FF0000FCFF3D00CF
(1687630357.359735) can0 0CF00400#407D930019000F93
(1687630357.379768) can0 0CF00400#307D930F19000F93
(1687630357.400016) can0 0CF00400#007D933519000F93
(1687630357.403210) can0 10FF031C#0337340C228BD264
(1687630357.433265) can0 0CF00400#707D921E19000F93
(1687630357.439833) can0 0CF00400#207D932719000F93
(1687630357.453733) can0 18FEF100#FF0000FCFF3D00CF
(1687630357.459783) can0 0CF00400#207D930319000F93
(1687630357.479860) can0 0CF00400#007D94F018000F94
(1687630357.500203) can0 0CF00400#607D93FE18000F94
(1687630357.502988) can0 10FF031C#03D7BA0D228BD264
(1687630357.519814) can0 0CF00400#507D930319000F94
(1687630357.539871) can0 0CF00400#507D931119000F94
(1687630357.554289) can0 18FEF100#FF0000FCFF3D00CF
(1687630357.559815) can0 0CF00400#407D931719000F94
(1687630357.579808) can0 0CF00400#707D930019000F94
(1687630357.600539) can0 0CF00400#007D94F318000F94
(1687630357.607805) can0 10FF031C#0378410F228BD264
(1687630357.637887) can0 0CF00400#407D94CA18000F94
(1687630357.639817) can0 0CF00400#407D94E118000F95
(1687630357.653757) can0 18FEF100#FF0000FCFF3D00CF
(1687630357.659767) can0 0CF00400#107D940019000F94
(1687630357.679816) can0 0CF00400#507D932119000F94
(1687630357.700674) can0 0CF00400#107D933C19000F93
(1687630357.702915) can0 10FF031C#03D78501238BD264
(1687630357.719873) can0 0CF00400#607D923619000F93
(1687630357.739906) can0 0CF00400#607D923B19000F93
(1687630357.753806) can0 18FEF100#FF0000FCFF3D00CF
(1687630357.759851) can0 0CF00400#507D921219000F93
(1687630357.779874) can0 0CF00400#207D930619000F93
(1687630357.800031) can0 0CF00400#507D922719000F93
(1687630357.804798) can0 10FF031C#03770C03238BD264
(1687630357.819821) can0 0CF00400#307D922A19000F92
(1687630357.839892) can0 0CF00400#107D924019000F92
(1687630357.853746) can0 18FEF100#FF0000FCFF3D00CF
(1687630357.859840) can0 0CF00400#707D913B19000F92
(1687630357.879859) can0 0CF00400#207D922319000F92
(1687630357.900084) can0 0CF00400#207D921619000F92
(1687630357.902636) can0 10FF031C#03179304238BD264
(1687630357.932726) can0 0CF00400#107D93D018000F93
(1687630357.939874) can0 0CF00400#407D93DA18000F93
(1687630357.953754) can0 18FEF100#FF0000FCFF3D00CF
(1687630357.959809) can0 0CF00400#307D93EA18000F93
(1687630357.979816) can0 0CF00400#107D93F918000F93
(1687630358.000001) can0 0CF00400#007D930919000F93
(1687630358.002839) can0 10FF031C#03B71906238BD264
(1687630358.019786) can0 0CF00400#107D930019000F93
(1687630358.039802) can0 0CF00400#307D93FD18000F93
(1687630358.053729) can0 18FEF100#FF0000FCFF3D00CF
(1687630358.059735) can0 0CF00400#507D93D818000F94
(1687630358.079797) can0 0CF00400#207D94CA18000F94
(1687630358.100058) can0 0CF00400#007D94D918000F94
(1687630358.102825) can0 10FF031C#0357A007238BD264
(1687630358.132851) can0 0CF00400#607D93FE18000F94
(1687630358.139879) can0 0CF00400#407D931519000F93
(1687630358.153725) can0 18FEF100#FF0000FCFF3D00CF
(1687630358.159778) can0 0CF00400#207D931D19000F93
(1687630358.179747) can0 0CF00400#407D930B19000F93
(1687630358.200014) can0 0CF00400#307D930219000F93
(1687630358.202856) can0 10FF031C#03F72609238BD264
(1687630358.219788) can0 0CF00400#007D94C418000F94
(1687630358.239851) can0 0CF00400#207D94E518000F94
(1687630358.253731) can0 18FEF100#FF0000FCFF3D00CF
(1687630358.259840) can0 0CF00400#607D93F718000F94
(1687630358.279775) can0 0CF00400#507D930A19000F94
(1687630358.300025) can0 0CF00400#107D933419000F93
(1687630358.302830) can0 10FF031C#0397AD0A238BD264
(1687630358.332929) can0 0CF00400#007D932019000F93
(1687630358.339838) can0 0CF00400#207D932919000F93
(1687630358.353723) can0 18FEF100#FF0000FCFF3D00CF
(1687630358.359746) can0 0CF00400#307D930519000F93
(1687630358.379799) can0 0CF00400#007D94F018000F94
(1687630358.400031) can0 0CF00400#507D930419000F94
(1687630358.402434) can0 10FF031C#0337340C238BD264
(1687630358.419811) can0 0CF00400#307D931819000F93
(1687630358.439818) can0 0CF00400#207D932319000F93
(1687630358.453696) can0 18FEF100#FF0000FCFF3D00CF
(1687630358.459793) can0 0CF00400#007D932B19000F93
(1687630358.479819) can0 0CF00400#007D931A19000F93
(1687630358.500029) can0 0CF00400#007D930419000F93
(1687630358.502843) can0 10FF031C#03D7BA0D238BD264
(1687630358.532907) can0 0CF00400#307D93E318000F93
(1687630358.539893) can0 0CF00400#207D93F918000F93
(1687630358.554290) can0 18FEF100#FF0000FCFF3D00CF
(1687630358.559802) can0 0CF00400#707D921519000F93
(1687630358.579814) can0 0CF00400#407D922319000F93
(1687630358.600076) can0 0CF00400#207D923419000F92
(1687630358.607775) can0 10FF031C#0378410F238BD264
(1687630358.619844) can0 0CF00400#207D922219000F92
(1687630358.639866) can0 0CF00400#507D921819000F93
(1687630358.653787) can0 18FEF100#FF0000FCFF3D00CF
(1687630358.659809) can0 0CF00400#007D93DD18000F93
(1687630358.679867) can0 0CF00400#007D94CC18000F94
(1687630358.700666) can0 0CF00400#507D93E118000F94
(1687630358.703419) can0 10FF031C#03D78501248BD264
(1687630358.733457) can0 0CF00400#607D93E218000F94
(1687630358.739975) can0 0CF00400#607D930519000F94
(1687630358.753727) can0 18FEF100#FF0000FCFF3D00CF
(1687630358.759848) can0 0CF00400#407D93FD18000F94
(1687630358.779844) can0 0CF00400#707D93EE18000F94
(1687630358.800051) can0 0CF00400#607D93F518000F94
(1687630358.802850) can0 10FF031C#03770C03248BD264
(1687630358.819823) can0 0CF00400#207D94C318000F94
(1687630358.839917) can0 0CF00400#307D94E018000F94
(1687630358.853768) can0 18FEF100#FF0000FCFF3D00CF
(1687630358.859817) can0 0CF00400#107D94F818000F94
(1687630358.879791) can0 0CF00400#607D931319000F94
(1687630358.900101) can0 0CF00400#307D933119000F93
(1687630358.902718) can0 10FF031C#03179304248BD264
(1687630358.919881) can0 0CF00400#107D933219000F93
(1687630358.939910) can0 0CF00400#207D932C19000F93
(1687630358.953788) can0 18FEF100#FF0000FCFF3D00CF
(1687630358.959837) can0 0CF00400#407D930219000F94
(1687630358.979892) can0 0CF00400#707D93FA18000F94
(1687630359.000001) can0 0CF00400#507D93FE18000F94
(1687630359.002817) can0 10FF031C#03B71906248BD264
(1687630359.032843) can0 0CF00400#407D931119000F93
(1687630359.039803) can0 0CF00400#107D932D19000F93
(1687630359.053734) can0 18FEF100#FF0000FCFF3D00CF
(1687630359.059787) can0 0CF00400#707D922819000F93
(1687630359.079815) can0 0CF00400#007D931719000F93
(1687630359.100494) can0 0CF00400#707D921019000F93
(1687630359.102825) can0 10FF031C#0357A007248BD264
(1687630359.119813) can0 0CF00400#307D93E918000F93
(1687630359.139908) can0 0CF00400#207D930D19000F93
(1687630359.153726) can0 18FEF100#FF0000FCFF3D00CF
(1687630359.159800) can0 0CF00400#707D921D19000F93
(1687630359.179789) can0 0CF00400#607D922519000F93
(1687630359.200070) can0 0CF00400#307D923D19000F92
(1687630359.201488) can0 10FF031C#00F72609248BD264
(1687630359.219770) can0 0CF00400#507D922219000F93
(1687630359.239803) can0 0CF00400#707D922419000F93
(1687630359.253729) can0 18FEF100#FF0000FCFF3D00CF
(1687630359.259790) can0 0CF00400#107D93EB18000F93
(1687630359.279797) can0 0CF00400#707D93D718000F94
(1687630359.300075) can0 0CF00400#507D93ED18000F94
(1687630359.301446) can0 10FF031C#0097AD0A248BD264
(1687630359.331509) can0 0CF00400#307D930219000F93
(1687630359.339855) can0 0CF00400#207D931419000F93
(1687630359.353741) can0 18FEF100#FF0000FCFF3D00CF
(1687630359.359732) can0 0CF00400#107D931919000F93
(1687630359.379832) can0 0CF00400#107D930F19000F93
(1687630359.400057) can0 0CF00400#207D930019000F93
(1687630359.401084) can0 10FF031C#0037340C248BD264
(1687630359.419815) can0 0CF00400#607D93DF18000F94
(4294967311.777215) can255 FFFFFFFF#FFFFFFFFFFFFFFFF
(4294967311.777215) can255 FFFFFFFF#FFFFFFFFFFFFFFFF
(4294967311.777215) can255 FFFFFFFF#FFFFFFFFFFFFFFFF
(4294967311.777215) can255 FFFFFFFF#FFFFFFFFFFFFFFFF
(4294967311.777215) can255 FFFFFFFF#FFFFFFFFFFFFFFFF
(4294967311.777215) can255 FFFFFFFF#FFFFFFFFFFFFFFFF
(4294967311.777215) can255 FFFFFFFF#FFFFFFFFFFFFFFFF
(4294967311.777215) can255 FFFFFFFF#FFFFFFFFFFFFFFFF
(4294967311.777215) can255 FFFFFFFF#FFFFFFFFFFFFFFFF
(4294967311.777215) can255 FFFFFFFF#FFFFFFFFFFFFFFFF
(4294967311.777215) can255 FFFFFFFF#FFFFFFFFFFFFFFFF
(4294967311.777215) can255 FFFFFFFF#FFFFFFFFFFFFFFFF
(4294967311.777215) can255 FFFFFFFF#FFFFFFFFFFFFFFFF