(1691507908.863761) can1 0CF00400#407D92E618000F93
(1691507908.864309) can1 0CF00400#707D92E718000F93
(1691507908.874110) can1 0CF00400#607D92F518000F93
(1691507908.893809) can1 0CF00400#507D92F318000F93
(1691507908.913749) can1 0CF00400#107D93B618000F93
(1691507908.927491) can1 18FEF100#FF0000FCFF3D00CF
(1691507908.932270) can1 10FF031C#0FD4A1070A20E564
(1691507908.932813) can1 10FF011C#E4FA31184BB25EC1
(1691507908.933397) can1 10FF021C#E0C4000000000000
(1691507908.934124) can1 0CF00400#307D93DE18000F93
(1691507908.953741) can1 0CF00400#607D920319000F93
(1691507908.974103) can1 0CF00400#307D922119000F92
(1691507908.993803) can1 0CF00400#207D921D19000F92
(1691507909.013936) can1 0CF00400#207D922719000F92
(1691507909.019311) can1 18DAFFF9#02D2FD0000000000
(1691507909.027467) can1 18FEF100#FF0000FCFF3D00CF
(1691507909.033409) can1 10FF031C#0F7428090A20E564
(1691507909.033982) can1 10FF011C#E4FA31184CB25EC1
(1691507909.034540) can1 10FF021C#30EC010000000000
(1691507909.063490) can1 0CF00400#107D923519000F92
(1691507909.064054) can1 0CF00400#107D92FD18000F92
(1691507909.074199) can1 0CF00400#007D93EB18000F93
(1691507909.093807) can1 0CF00400#207D921519000F92
(1691507909.114155) can1 0CF00400#107D921719000F92
(1691507909.127519) can1 18FEF100#FF0000FCFF3D00CF
(1691507909.133703) can1 10FF031C#0F14AF0A0A20E564
(1691507909.134260) can1 0CF00400#707D912719000F92
(1691507909.134808) can1 10FF011C#E4FA31184DB25EC1
(1691507909.135392) can1 10FF021C#E0C4000000000000
(1691507909.153766) can1 0CF00400#707D911A19000F92
(1691507909.174195) can1 0CF00400#007D921E19000F92
(1691507909.193807) can1 0CF00400#507D912019000F92
(1691507909.213747) can1 0CF00400#307D92C218000F92
(1691507909.227522) can1 18FEF100#FF0000FCFF3D00CF
(1691507909.233584) can1 10FF031C#0FB4350C0A20E564
(1691507909.234132) can1 10FF011C#E4FA31184DB25EC1
(1691507909.234712) can1 10FF021C#7062000000000000
(1691507909.263676) can1 0CF00400#707D92EC18000F93
(1691507909.264242) can1 0CF00400#207D920C19000F92
(1691507909.270318) can1 18DAFFF9#02B5FE0000000000
(1691507909.274306) can1 0CF00400#107D921419000F92
(1691507909.294198) can1 0CF00400#107D920B19000F92
(1691507909.314214) can1 0CF00400#107D922219000F92
(1691507909.327545) can1 18FEF100#FF0000FCFF3D00CF
(1691507909.333111) can1 10FF031C#0F54BC0D0A20E564
(1691507909.333676) can1 10FF011C#E4FA31184EB25EC1
(1691507909.334221) can1 0CF00400#007D922219000F92
(1691507909.334803) can1 10FF021C#40FA010000000000
(1691507909.353762) can1 0CF00400#307D92EA18000F92
(1691507909.374260) can1 0CF00400#107D93CE18000F93
(1691507909.393812) can1 0CF00400#607D92F918000F93
(1691507909.413776) can1 0CF00400#307D921519000F92
(1691507909.427558) can1 18FEF100#FF0000FCFF3D00CF
(1691507909.433686) can1 0CF00400#207D921619000F92
(1691507909.437697) can1 10FF031C#0FB400000B20E564
(1691507909.438250) can1 10FF011C#E3FA31184EB25EC1
(1691507909.438826) can1 10FF021C#F0B3010000000000
(1691507909.467790) can1 0CF00400#307D920F19000F92
(1691507909.474250) can1 0CF00400#207D921B19000F92
(1691507909.493808) can1 0CF00400#707D911B19000F92
(1691507909.513751) can1 0CF00400#407D92C718000F93
(1691507909.521336) can1 18DAFFF9#0286F10000000000
(1691507909.527615) can1 18FEF100#FF0000FCFF3D00CF
(1691507909.533757) can1 0CF00400#707D92FD18000F93
(1691507909.534306) can1 10FF011C#E4FA31184EB25EC1
(1691507909.534897) can1 10FF021C#20FD000000000000
(1691507909.535452) can1 10FF031C#0F5487010B20E564
(1691507909.553754) can1 0CF00400#107D921919000F92
(1691507909.574254) can1 0CF00400#707D912F19000F92
(1691507909.593791) can1 0CF00400#407D912B19000F92
(1691507909.613754) can1 0CF00400#507D912919000F92
(1691507909.627546) can1 18FEF100#FF0000FCFF3D00CF
(1691507909.633548) can1 10FF031C#0FF40D030B20E564
(1691507909.634123) can1 0CF00400#407D913F19000F92
(1691507909.634657) can1 10FF011C#E3FA31184FB25EC1
(1691507909.635236) can1 10FF021C#7005030000000000
(1691507909.653774) can1 0CF00400#507D91FD18000F92
(1691507909.674239) can1 0CF00400#607D92D518000F93
(1691507909.693834) can1 0CF00400#107D920119000F92
(1691507909.713783) can1 0CF00400#107D920519000F92
(1691507909.728141) can1 18FEF100#FF0000FCFF3D00CF
(1691507909.733792) can1 0CF00400#107D920619000F92
(1691507909.734324) can1 10FF011C#E3FA31184FB25EC1
(1691507909.734904) can1 10FF021C#E0C4000000000000
(1691507909.735463) can1 10FF031C#0F9494040B20E564
(1691507909.763888) can1 0CF00400#207D920919000F92
(1691507909.772345) can1 18DAFFF9#02BBFE0000000000
(1691507909.775359) can1 0CF00400#207D920B19000F92
(1691507909.793826) can1 0CF00400#207D92FF18000F92
(1691507909.813748) can1 0CF00400#707D92C218000F93
(1691507909.827600) can1 18FEF100#FF0000FCFF3D00CF
(1691507909.833723) can1 10FF031C#0F341B060B20E564
(1691507909.834286) can1 0CF00400#007D93E718000F93
(1691507909.834834) can1 10FF011C#E3FA311850B25EC1
(1691507909.835410) can1 10FF021C#F0B3010000000000
(1691507909.853765) can1 0CF00400#407D92FD18000F93
(1691507909.873726) can1 0CF00400#207D921119000F92
(1691507909.894478) can1 0CF00400#207D920719000F92
(1691507909.913777) can1 0CF00400#307D920C19000F92
(1691507909.927620) can1 18FEF100#FF0000FCFF3D00CF
(1691507909.932314) can1 10FF031C#0FD4A1070B20E564
(1691507909.932860) can1 10FF011C#E3FA311850B25EC1
(1691507909.933439) can1 10FF021C#A04E020000000000
(1691507909.934219) can1 0CF00400#207D922019000F92
(1691507909.953792) can1 0CF00400#407D92E818000F92
(1691507909.974308) can1 0CF00400#307D93CE18000F93
(1691507909.993809) can1 0CF00400#607D920219000F93
(1691507910.014122) can1 0CF00400#607D920619000F93
(1691507910.023363) can1 18DAFFF9#0290FE0000000000
(1691507910.027643) can1 18FEF100#FF0000FCFF3D00CF
(1691507910.033672) can1 10FF031C#0F7428090B20E564
(1691507910.034218) can1 10FF011C#E3FA311851B25EC1
(1691507910.034797) can1 10FF021C#A04E020000000000
(1691507910.063760) can1 0CF00400#507D921019000F93
(1691507910.064315) can1 0CF00400#607D920619000F93
(1691507910.074303) can1 0CF00400#607D921719000F93
(1691507910.093820) can1 0CF00400#207D921B19000F92
(1691507910.114324) can1 0CF00400#007D93C318000F93
(1691507910.127660) can1 18FEF100#FF0000FCFF3D00CF
(1691507910.133605) can1 10FF031C#0F15AF0A0B20E564
(1691507910.134177) can1 0CF00400#107D93F518000F93
(1691507910.134729) can1 10FF011C#E3FA311851B25EC1
(1691507910.135309) can1 10FF021C#E0A5010000000000
(1691507910.153781) can1 0CF00400#207D921F19000F92
(1691507910.174314) can1 0CF00400#607D912D19000F92
(1691507910.193805) can1 0CF00400#407D913119000F92
(1691507910.213775) can1 0CF00400#307D913B19000F91
(1691507910.227666) can1 18FEF100#FF0000FCFF3D00CF
(1691507910.233475) can1 10FF031C#0FB5350C0B20E564
(1691507910.233998) can1 10FF011C#E3FA311851B25EC1
(1691507910.234575) can1 10FF021C#6035010000000000
(1691507910.263529) can1 0CF00400#207D914519000F91
(1691507910.264091) can1 0CF00400#207D910619000F91
(1691507910.274368) can1 18DAFFF9#02B1FE0000000000
(1691507910.274934) can1 0CF00400#107D92EA18000F92
(1691507910.294326) can1 0CF00400#607D910F19000F92
(1691507910.314313) can1 0CF00400#307D912D19000F91
(1691507910.327679) can1 18FEF100#FF0000FCFF3D00CF
(1691507910.333794) can1 0CF00400#207D912819000F91
(1691507910.334341) can1 10FF011C#E3FA311852B25EC1
(1691507910.334925) can1 10FF021C#00E1000000000000
(1691507910.335476) can1 10FF031C#0F55BC0D0B20E564
(1691507910.353762) can1 0CF00400#507D910F19000F92
(1691507910.374366) can1 0CF00400#707D910F19000F92
(1691507910.393805) can1 0CF00400#707D91FD18000F92
(1691507910.413789) can1 0CF00400#707D92A018000F93
(1691507910.427705) can1 18FEF100#FF0000FCFF3D00CF
(1691507910.434356) can1 0CF00400#107D93DA18000F93
(1691507910.437672) can1 10FF031C#0FB500000C20E564
(1691507910.438220) can1 10FF011C#E3FA311852B25EC1
(1691507910.438804) can1 10FF021C#E0C4000000000000
(1691507910.467753) can1 0CF00400#407D92ED18000F93
(1691507910.474393) can1 0CF00400#307D920019000F92
(1691507910.493842) can1 0CF00400#207D920819000F92
(1691507910.513833) can1 0CF00400#307D920B19000F92
(1691507910.525387) can1 18DAFFF9#02B1FE0000000000
(1691507910.527730) can1 18FEF100#FF0000FCFF3D00CF
(1691507910.533523) can1 10FF031C#0F5587010C20E564
(1691507910.534076) can1 0CF00400#207D922B19000F92
(1691507910.534636) can1 10FF011C#E3FA311853B25EC1
(1691507910.535219) can1 10FF021C#300B010000000000
(1691507910.553835) can1 0CF00400#207D92E918000F92
(1691507910.574417) can1 0CF00400#207D93DC18000F93
(1691507910.593832) can1 0CF00400#407D920B19000F93
(1691507910.613824) can1 0CF00400#307D921119000F92
(1691507910.627736) can1 18FEF100#FF0000FCFF3D00CF
(1691507910.633672) can1 10FF031C#0FF50D030C20E564
(1691507910.634228) can1 0CF00400#207D921A19000F92
(1691507910.634787) can1 10FF011C#E3FA311853B25EC1
(1691507910.635362) can1 10FF021C#F0D2000000000000
(1691507910.653813) can1 0CF00400#207D921E19000F92
(1691507910.674421) can1 0CF00400#107D922319000F92
(1691507910.693846) can1 0CF00400#707D911D19000F92
(1691507910.713865) can1 0CF00400#507D92D118000F93
(1691507910.728311) can1 18FEF100#FF0000FCFF3D00CF
(1691507910.733638) can1 10FF031C#0F9594040C20E564
(1691507910.734193) can1 10FF011C#E3FA311853B25EC1
(1691507910.734777) can1 10FF021C#907E000000000000
(1691507910.763734) can1 0CF00400#707D92FA18000F93
(1691507910.764291) can1 0CF00400#307D921A19000F92
(1691507910.774992) can1 0CF00400#107D922619000F92
(1691507910.776383) can1 18DAFFF9#02B5FE0000000000
(1691507910.793863) can1 0CF00400#107D921619000F92
(1691507910.813862) can1 0CF00400#207D922419000F92
(1691507910.827731) can1 18FEF100#FF0000FCFF3D00CF
(1691507910.833156) can1 10FF031C#0F351B060C20E564
(1691507910.833701) can1 10FF011C#E3FA311854B25EC1
(1691507910.834284) can1 10FF021C#302A000000000000
(1691507910.834852) can1 0CF00400#707D913F19000F92
(1691507910.853800) can1 0CF00400#107D92F118000F92
(1691507910.874413) can1 0CF00400#707D92E118000F93
(1691507910.894061) can1 0CF00400#007D921919000F92
(1691507910.913864) can1 0CF00400#607D911F19000F92
(1691507910.927770) can1 18FEF100#FF0000FCFF3D00CF
(1691507910.932032) can1 10FF031C#0FD5A1070C20E564
(1691507910.932576) can1 10FF011C#E3FA311854B25EC1
(1691507910.933154) can1 10FF021C#F0D2000000000000
(1691507910.934368) can1 0CF00400#407D913419000F91
(1691507910.953873) can1 0CF00400#307D912919000F91
(1691507910.974452) can1 0CF00400#307D912B19000F91
(1691507910.993905) can1 0CF00400#007D912419000F91
(1691507911.014045) can1 0CF00400#707D91D218000F92
(1691507911.027400) can1 18DAFFF9#02EDFE0000000000
(1691507911.027968) can1 18FEF100#FF0000FCFF3D00CF
(1691507911.032938) can1 10FF031C#0F7528090C20E564
(1691507911.033480) can1 10FF011C#E3FA311854B25EC1
(1691507911.034063) can1 10FF021C#C0A8000000000000
(1691507911.063033) can1 0CF00400#107D92FB18000F92
(1691507911.063587) can1 0CF00400#607D910F19000F92
(1691507911.074483) can1 0CF00400#407D911619000F92
(1691507911.093897) can1 0CF00400#607D910619000F92
(1691507911.114449) can1 0CF00400#007D920419000F92
(1691507911.127795) can1 18FEF100#FF0000FCFF3D00CF
(1691507911.133911) can1 0CF00400#207D920919000F92
(1691507911.134723) can1 10FF031C#0F15AF0A0C20E564
(1691507911.135270) can1 10FF011C#E3FA311854B25EC1
(1691507911.135854) can1 10FF021C#8070000000000000
(1691507911.153898) can1 0CF00400#407D92BB18000F93
(1691507911.174426) can1 0CF00400#507D93B318000F94
(1691507911.194498) can1 0CF00400#007D93E418000F93
(1691507911.213933) can1 0CF00400#607D92F918000F93
(1691507911.227779) can1 18FEF100#FF0000FCFF3D00CF
(1691507911.233886) can1 0CF00400#507D920419000F93
(1691507911.235177) can1 10FF031C#0FB5350C0C20E564
(1691507911.235725) can1 10FF011C#E3FA311855B25EC1
(1691507911.236310) can1 10FF021C#00A3020000000000
(1691507911.265279) can1 0CF00400#607D920319000F93
(1691507911.274991) can1 0CF00400#607D921219000F93
(1691507911.278420) can1 18DAFFF9#02D2FD0000000000
(1691507911.294425) can1 0CF00400#307D920419000F92
(1691507911.314440) can1 0CF00400#207D93C018000F93
(1691507911.327791) can1 18FEF100#FF0000FCFF3D00CF
(1691507911.333870) can1 0CF00400#007D930D19000F93
(1691507911.339456) can1 10FF031C#0F55BC0D0C20E564
(1691507911.340006) can1 10FF011C#E3FA311855B25EC1
(1691507911.340582) can1 10FF021C#F0D2000000000000
(1691507911.353918) can1 0CF00400#207D921E19000F92
(1691507911.374477) can1 0CF00400#007D923419000F92
(1691507911.393955) can1 0CF00400#507D913519000F92
(1691507911.413939) can1 0CF00400#507D913519000F92
(1691507911.427855) can1 18FEF100#FF0000FCFF3D00CF
(1691507911.434490) can1 0CF00400#407D914919000F92
(1691507911.440022) can1 10FF031C#0FB500000D20E564
(1691507911.440575) can1 10FF011C#E3FA311856B25EC1
(1691507911.441163) can1 10FF021C#00A3020000000000
(1691507911.470116) can1 0CF00400#507D91F818000F92
(1691507911.474507) can1 0CF00400#407D92E718000F93
(1691507911.493966) can1 0CF00400#007D921619000F92
(1691507911.513978) can1 0CF00400#607D912019000F92
(1691507911.527866) can1 18FEF100#FF0000FCFF3D00CF
(1691507911.529425) can1 18DAFFF9#02D2FD0000000000
(1691507911.533963) can1 0CF00400#707D911619000F92
(1691507911.538972) can1 10FF031C#0F5587010D20E564
(1691507911.539521) can1 10FF011C#E4FA311856B25EC1
(1691507911.540101) can1 10FF021C#30EC010000000000
(1691507911.553933) can1 0CF00400#107D921519000F92
(1691507911.574489) can1 0CF00400#107D921819000F92
(1691507911.593918) can1 0CF00400#007D920B19000F92
(1691507911.613976) can1 0CF00400#007D93BF18000F93
(1691507911.627870) can1 18FEF100#FF0000FCFF3D00CF
(1691507911.633988) can1 0CF00400#007D93F018000F93
(1691507911.635946) can1 10FF031C#0FF50D030D20E564
(1691507911.636494) can1 10FF011C#E4FA311857B25EC1
(1691507911.637078) can1 10FF021C#10B1020000000000
(1691507911.653971) can1 0CF00400#307D921019000F92
(1691507911.674529) can1 0CF00400#107D921C19000F92
(1691507911.693936) can1 0CF00400#107D921719000F92
(1691507911.713997) can1 0CF00400#207D921819000F92
(1691507911.728439) can1 18FEF100#FF0000FCFF3D00CF
(1691507911.733974) can1 0CF00400#107D922A19000F92
(1691507911.735718) can1 10FF031C#0F9594040D20E564
(1691507911.736265) can1 10FF011C#E4FA311857B25EC1
(1691507911.736847) can1 10FF021C#A06D010000000000
(1691507911.765813) can1 0CF00400#207D92E518000F92
(1691507911.775079) can1 0CF00400#707D92F018000F93
(1691507911.780431) can1 18DAFFF9#02BBFE0000000000
(1691507911.793970) can1 0CF00400#007D921619000F92
(1691507911.813979) can1 0CF00400#707D912C19000F92
(1691507911.827859) can1 18FEF100#FF0000FCFF3D00CF
(1691507911.833990) can1 0CF00400#307D914119000F91
(1691507911.836088) can1 10FF031C#0F351B060D20E564
(1691507911.836637) can1 10FF011C#E5FA311858B25EC1
(1691507911.837216) can1 10FF021C#6035010000000000
(1691507911.853975) can1 0CF00400#307D912F19000F91
(1691507911.874590) can1 0CF00400#307D913419000F91
(1691507911.894191) can1 0CF00400#107D912319000F91
(1691507911.914025) can1 0CF00400#107D92D018000F92
(1691507911.927950) can1 18FEF100#FF0000FCFF3D00CF
(1691507911.934149) can1 10FF031C#0FD5A1070D20E564
(1691507911.934717) can1 0CF00400#107D92FC18000F92
(1691507911.935265) can1 10FF011C#E5FA311858B25EC1
(1691507911.935849) can1 10FF021C#302A000000000000
(1691507911.954009) can1 0CF00400#607D910E19000F92
(1691507911.974578) can1 0CF00400#507D910919000F92
(1691507911.994022) can1 0CF00400#007D92FF18000F92
(1691507912.014192) can1 0CF00400#007D920919000F92
(1691507912.027940) can1 18FEF100#FF0000FCFF3D00CF
(1691507912.034026) can1 0CF00400#107D920719000F92
(1691507912.035773) can1 10FF031C#0F7528090D20E564
(1691507912.036320) can1 10FF011C#E5FA311858B25EC1
(1691507912.036911) can1 10FF021C#10D0010000000000
(1691507912.065886) can1 0CF00400#307D92BC18000F92
(1691507912.074625) can1 0CF00400#207D93CB18000F93
(1691507912.094017) can1 0CF00400#407D92F718000F93
(1691507912.114535) can1 0CF00400#307D920E19000F92
(1691507912.127906) can1 18FEF100#FF0000FCFF3D00CF
(1691507912.134064) can1 0CF00400#307D920D19000F92
(1691507912.135992) can1 10FF031C#0F15AF0A0D20E564
(1691507912.136539) can1 10FF011C#E5FA311859B25EC1
(1691507912.137128) can1 10FF021C#C0A8000000000000
(1691507912.154033) can1 0CF00400#407D920A19000F92
(1691507912.174608) can1 0CF00400#407D921319000F92
(1691507912.194046) can1 0CF00400#207D920119000F92
(1691507912.214073) can1 0CF00400#307D93B018000F93
(1691507912.227920) can1 18FEF100#FF0000FCFF3D00CF
(1691507912.234086) can1 0CF00400#207D93F018000F93
(1691507912.236070) can1 10FF031C#0FB5350C0D20E564
(1691507912.236621) can1 10FF011C#E6FA31185AB25EC1
(1691507912.237213) can1 10FF021C#905F010000000000
(1691507912.266185) can1 0CF00400#407D920819000F93
(1691507912.275147) can1 0CF00400#207D921B19000F92
(1691507912.294600) can1 0CF00400#107D921819000F92
(1691507912.314618) can1 0CF00400#207D921F19000F92
(1691507912.327978) can1 18FEF100#FF0000FCFF3D00CF
(1691507912.334064) can1 0CF00400#707D914219000F92
(1691507912.335766) can1 10FF031C#0F55BC0D0D20E564
(1691507912.336313) can1 10FF011C#E5FA31185AB25EC1
(1691507912.336899) can1 10FF021C#A02F030000000000
(1691507912.354071) can1 0CF00400#007D92E418000F92
(1691507912.374666) can1 0CF00400#007D93E618000F93
(1691507912.394080) can1 0CF00400#207D921419000F92
(1691507912.414086) can1 0CF00400#007D921E19000F92
(1691507912.427998) can1 18FEF100#FF0000FCFF3D00CF
(1691507912.434620) can1 0CF00400#007D921B19000F92
(1691507912.441600) can1 10FF031C#0FB500000E20E564
(1691507912.442146) can1 10FF011C#E6FA31185AB25EC1
(1691507912.442725) can1 10FF021C#5008020000000000
(1691507912.471675) can1 0CF00400#007D921D19000F92
(1691507912.474636) can1 0CF00400#707D911B19000F92
(1691507912.494046) can1 0CF00400#707D910B19000F92
(1691507912.514105) can1 0CF00400#507D92CB18000F93
(1691507912.528014) can1 18FEF100#FF0000FCFF3D00CF
(1691507912.534088) can1 0CF00400#507D92EE18000F93
(1691507912.536188) can1 10FF031C#0F5587010E20E564
(1691507912.536743) can1 10FF011C#E6FA31185BB25EC1
(1691507912.537328) can1 10FF021C#A08C000000000000
(1691507912.554100) can1 0CF00400#107D921219000F92
(1691507912.574636) can1 0CF00400#607D912219000F92
(1691507912.594062) can1 0CF00400#607D911C19000F92
(1691507912.614102) can1 0CF00400#707D911E19000F92
(1691507912.627981) can1 18FEF100#FF0000FCFF3D00CF
(1691507912.634132) can1 0CF00400#507D912D19000F92
(1691507912.635875) can1 10FF031C#0FF50D030E20E564
(1691507912.636427) can1 10FF011C#E6FA31185BB25EC1
(1691507912.637011) can1 10FF021C#6035010000000000
(1691507912.654071) can1 0CF00400#007D92DB18000F92
(1691507912.674635) can1 0CF00400#507D92E718000F93
(1691507912.694117) can1 0CF00400#007D920919000F92
(1691507912.714177) can1 0CF00400#107D920F19000F92
(1691507912.728553) can1 18FEF100#FF0000FCFF3D00CF
(1691507912.734071) can1 0CF00400#007D921019000F92
(1691507912.736247) can1 10FF031C#0F9594040E20E564
(1691507912.736803) can1 10FF011C#E6FA31185CB25EC1
(1691507912.737383) can1 10FF021C#C0A8000000000000
(1691507912.766348) can1 0CF00400#207D920619000F92
(1691507912.775228) can1 0CF00400#207D921419000F92
(1691507912.794136) can1 0CF00400#107D92F718000F92
(1691507912.814121) can1 0CF00400#207D93B618000F93
(1691507912.828043) can1 18FEF100#FF0000FCFF3D00CF
(1691507912.834106) can1 0CF00400#707D92F718000F93
(1691507912.836130) can1 10FF031C#0F351B060E20E564
(1691507912.836682) can1 10FF011C#E6FA31185DB25EC1
(1691507912.837271) can1 10FF021C#905F010000000000
(1691507912.854099) can1 0CF00400#207D921119000F92
(1691507912.874851) can1 0CF00400#007D921719000F92
(1691507912.894332) can1 0CF00400#107D921519000F92
(1691507912.914148) can1 0CF00400#007D922219000F92
(1691507912.928058) can1 18FEF100#FF0000FCFF3D00CF
(1691507912.934656) can1 0CF00400#007D921C19000F92
(1691507912.935830) can1 10FF031C#0FD5A1070E20E564
(1691507912.936376) can1 10FF011C#E7FA31185DB25EC1
(1691507912.936966) can1 10FF021C#00C2010000000000
(1691507912.954123) can1 0CF00400#307D92D218000F92
(1691507912.975074) can1 0CF00400#107D93D318000F93
(1691507912.994146) can1 0CF00400#407D92F918000F93
(1691507913.014487) can1 0CF00400#207D921519000F92
(1691507913.028032) can1 18FEF100#FF0000FCFF3D00CF
(1691507913.034142) can1 0CF00400#207D920819000F92
(1691507913.036197) can1 10FF031C#0F7528090E20E564
(1691507913.036752) can1 10FF011C#E6FA31185DB25EC1
(1691507913.037332) can1 10FF021C#00E1000000000000
(1691507913.066300) can1 0CF00400#307D920119000F92
(1691507913.075249) can1 0CF00400#407D921219000F92
(1691507913.094183) can1 0CF00400#207D92FF18000F92
(1691507913.114679) can1 0CF00400#307D93B818000F93
(1691507913.128081) can1 18FEF100#FF0000FCFF3D00CF
(1691507913.134192) can1 0CF00400#707D920019000F93
(1691507913.136138) can1 10FF031C#0F15AF0A0E20E564
(1691507913.136686) can1 10FF011C#E7FA31185EB25EC1
(1691507913.137270) can1 10FF021C#B07B010000000000
(1691507913.154147) can1 0CF00400#207D921C19000F92
(1691507913.175239) can1 0CF00400#707D912E19000F92
(1691507913.194188) can1 0CF00400#507D912D19000F92
(1691507913.214221) can1 0CF00400#607D912E19000F92
(1691507913.228094) can1 18FEF100#FF0000FCFF3D00CF
(1691507913.234208) can1 0CF00400#307D913B19000F91
(1691507913.235930) can1 10FF031C#0FB5350C0E20E564
(1691507913.236481) can1 10FF011C#E7FA31185FB25EC1
(1691507913.237074) can1 10FF021C#905F010000000000
(1691507913.266029) can1 0CF00400#507D91E818000F92
(1691507913.275887) can1 0CF00400#207D92F318000F92
(1691507913.294715) can1 0CF00400#607D911319000F92
(1691507913.314744) can1 0CF00400#407D911E19000F91
(1691507913.328112) can1 18FEF100#FF0000FCFF3D00CF
(1691507913.334204) can1 0CF00400#307D911919000F91
(1691507913.335192) can1 10FF031C#0F55BC0D0E20E564
(1691507913.335745) can1 10FF011C#E7FA31185FB25EC1
(1691507913.336327) can1 10FF021C#7024020000000000
(1691507913.354208) can1 0CF00400#407D911C19000F91
(1691507913.375334) can1 0CF00400#407D911019000F92
(1691507913.394234) can1 0CF00400#607D91F418000F92
(1691507913.414227) can1 0CF00400#607D92B818000F93
(1691507913.428086) can1 18FEF100#FF0000FCFF3D00CF
(1691507913.434724) can1 0CF00400#607D92DA18000F93
(1691507913.442787) can1 10FF031C#0FB500000F20E564
(1691507913.443341) can1 10FF011C#E7FA311860B25EC1
(1691507913.443924) can1 10FF021C#4019010000000000
(1691507913.472877) can1 0CF00400#307D92F918000F92
(1691507913.475329) can1 0CF00400#207D920119000F92
(1691507913.494249) can1 0CF00400#307D92F618000F92
(1691507913.514266) can1 0CF00400#407D920819000F92
(1691507913.528141) can1 18FEF100#FF0000FCFF3D00CF
(1691507913.534223) can1 0CF00400#207D921319000F92
(1691507913.536829) can1 10FF031C#0F5587010F20E564
(1691507913.537375) can1 10FF011C#E7FA311860B25EC1
(1691507913.537956) can1 10FF021C#7043010000000000
(1691507913.554240) can1 0CF00400#607D92B018000F93
(1691507913.575336) can1 0CF00400#407D93D618000F94
(1691507913.594222) can1 0CF00400#407D920919000F92
(1691507913.614254) can1 0CF00400#407D921519000F92
(1691507913.628117) can1 18FEF100#FF0000FCFF3D00CF
(1691507913.634275) can1 0CF00400#107D922D19000F92
(1691507913.636864) can1 10FF031C#0FF50D030F20E564
(1691507913.637416) can1 10FF011C#E7FA311861B25EC1
(1691507913.638002) can1 10FF021C#A08C000000000000
(1691507913.654243) can1 0CF00400#107D922619000F92
(1691507913.674812) can1 0CF00400#007D923819000F92
(1691507913.694251) can1 0CF00400#607D912219000F92
(1691507913.714305) can1 0CF00400#607D92DC18000F93
(1691507913.728744) can1 18FEF100#FF0000FCFF3D00CF
(1691507913.734270) can1 0CF00400#407D920F19000F92
(1691507913.736155) can1 10FF031C#0F9594040F20E564
(1691507913.736707) can1 10FF011C#E7FA311861B25EC1
(1691507913.737290) can1 10FF021C#C0A8000000000000
(1691507913.766251) can1 0CF00400#007D922519000F92
(1691507913.775904) can1 0CF00400#507D912619000F92
(1691507913.794221) can1 0CF00400#707D911719000F92
(1691507913.814314) can1 0CF00400#707D912019000F92
(1691507913.828155) can1 18FEF100#FF0000FCFF3D00CF
(1691507913.834081) can1 10FF031C#0F351B060F20E564
(1691507913.834634) can1 0CF00400#607D912419000F92
(1691507913.835182) can1 10FF011C#E8FA311861B25EC1
(1691507913.835758) can1 10FF021C#50E9020000000000
(1691507913.854256) can1 0CF00400#007D92DC18000F92
(1691507913.874811) can1 0CF00400#507D92DE18000F93
(1691507913.894988) can1 0CF00400#107D920B19000F92
(1691507913.914300) can1 0CF00400#607D912219000F92
(1691507913.928200) can1 18FEF100#FF0000FCFF3D00CF
(1691507913.934788) can1 0CF00400#707D911219000F92
(1691507913.936813) can1 10FF031C#0FD6A1070F20E564
(1691507913.937357) can1 10FF011C#E8FA311862B25EC1
(1691507913.937936) can1 10FF021C#7062000000000000
(1691507913.966912) can1 0CF00400#107D920919000F92
(1691507913.974810) can1 0CF00400#107D921119000F92
(1691507913.994310) can1 0CF00400#107D92E918000F92
(1691507914.014295) can1 0CF00400#207D93B318000F93
(1691507914.028219) can1 18FEF100#FF0000FCFF3D00CF
(1691507914.034289) can1 0CF00400#707D92EE18000F93
(1691507914.036692) can1 10FF031C#0F7628090F20E564
(1691507914.037241) can1 10FF011C#E8FA311862B25EC1
(1691507914.037824) can1 10FF021C#E0C4000000000000
(1691507914.054305) can1 0CF00400#307D92FB18000F92
(1691507914.074895) can1 0CF00400#207D921419000F92
(1691507914.094329) can1 0CF00400#007D921A19000F92
(1691507914.114819) can1 0CF00400#107D921C19000F92
(1691507914.128182) can1 18FEF100#FF0000FCFF3D00CF
(1691507914.134324) can1 0CF00400#607D913619000F92
(1691507914.135780) can1 10FF031C#0F16AF0A0F20E564
(1691507914.136327) can1 10FF011C#E8FA311862B25EC1
(1691507914.136915) can1 10FF021C#4019010000000000
(1691507914.154283) can1 0CF00400#007D92E118000F92
(1691507914.174849) can1 0CF00400#507D92F618000F93
(1691507914.194326) can1 0CF00400#707D911F19000F92
(1691507914.214376) can1 0CF00400#407D913019000F92
(1691507914.228193) can1 18FEF100#FF0000FCFF3D00CF
(1691507914.234340) can1 0CF00400#307D912319000F91
(1691507914.236150) can1 10FF031C#0FB6350C0F20E564
(1691507914.236701) can1 10FF011C#E8FA311863B25EC1
(1691507914.237286) can1 10FF021C#907E000000000000
(1691507914.266244) can1 0CF00400#407D912919000F91
(1691507914.275456) can1 0CF00400#207D912819000F91
(1691507914.294884) can1 0CF00400#307D910019000F91
(1691507914.314859) can1 0CF00400#307D92C118000F92
(1691507914.328223) can1 18FEF100#FF0000FCFF3D00CF
(1691507914.334190) can1 10FF031C#0F56BC0D0F20E564
(1691507914.334758) can1 0CF00400#007D92F018000F92
(1691507914.335310) can1 10FF011C#E8FA311863B25EC1
(1691507914.335898) can1 10FF021C#905F010000000000
(1691507914.354355) can1 0CF00400#507D910119000F92
(1691507914.374863) can1 0CF00400#507D91FD18000F92
(1691507914.394354) can1 0CF00400#707D91E618000F92
(1691507914.414403) can1 0CF00400#007D92F118000F92
(1691507914.428233) can1 18FEF100#FF0000FCFF3D00CF
(1691507914.434882) can1 0CF00400#707D91F418000F92
(1691507914.441985) can1 10FF031C#0FB600001020E564
(1691507914.442534) can1 10FF011C#E8FA311864B25EC1
(1691507914.443118) can1 10FF021C#302A000000000000
(1691507914.472061) can1 0CF00400#407D929C18000F92
(1691507914.474955) can1 0CF00400#207D93BB18000F93
(1691507914.494379) can1 0CF00400#307D92E418000F92
(1691507914.514417) can1 0CF00400#307D92F818000F92
(1691507914.528298) can1 18FEF100#FF0000FCFF3D00CF
(1691507914.534377) can1 0CF00400#107D920619000F92
(1691507914.536327) can1 10FF031C#0F5687011020E564
(1691507914.536883) can1 10FF011C#E9FA311864B25EC1
(1691507914.537461) can1 10FF021C#00E1000000000000
(1691507914.554386) can1 0CF00400#207D92F718000F92
(1691507914.574930) can1 0CF00400#207D920D19000F92
(1691507914.594404) can1 0CF00400#007D920319000F92
(1691507914.614417) can1 0CF00400#007D93BC18000F93
(1691507914.628304) can1 18FEF100#FF0000FCFF3D00CF
(1691507914.634412) can1 0CF00400#707D92F218000F93
(1691507914.634960) can1 10FF011C#E9FA311865B25EC1
(1691507914.635536) can1 10FF021C#D0B6000000000000
(1691507914.636104) can1 10FF031C#0FF60D031020E564
(1691507914.654395) can1 0CF00400#307D920B19000F92
(1691507914.674938) can1 0CF00400#107D921119000F92
(1691507914.694422) can1 0CF00400#307D920B19000F92
(1691507914.714413) can1 0CF00400#307D921619000F92
(1691507914.728885) can1 18FEF100#FF0000FCFF3D00CF
(1691507914.734401) can1 0CF00400#407D920B19000F92
(1691507914.734944) can1 10FF011C#E9FA311865B25EC1
(1691507914.735529) can1 10FF021C#10EF000000000000
(1691507914.736092) can1 10FF031C#0F9694041020E564
(1691507914.764810) can1 0CF00400#607D92C618000F93
(1691507914.775513) can1 0CF00400#207D93DA18000F93
(1691507914.794409) can1 0CF00400#507D920119000F93
(1691507914.814438) can1 0CF00400#207D921C19000F92
(1691507914.828322) can1 18FEF100#FF0000FCFF3D00CF
(1691507914.833727) can1 10FF031C#0F361B061020E564
(1691507914.834275) can1 10FF011C#E9FA311866B25EC1
(1691507914.834859) can1 10FF021C#4038000000000000
(1691507914.835419) can1 0CF00400#007D922319000F92
(1691507914.854408) can1 0CF00400#707D912719000F92
(1691507914.874917) can1 0CF00400#407D913219000F92
(1691507914.895029) can1 0CF00400#207D911919000F91
(1691507914.914418) can1 0CF00400#107D92EA18000F92
(1691507914.928334) can1 18FEF100#FF0000FCFF3D00CF
(1691507914.934239) can1 10FF031C#0FD6A1071020E564
(1691507914.934786) can1 10FF011C#E9FA311866B25EC1
(1691507914.935367) can1 10FF021C#A06D010000000000
(1691507914.964326) can1 0CF00400#507D912419000F92
(1691507914.964890) can1 0CF00400#107D913019000F91
(1691507914.974970) can1 0CF00400#707D903619000F91
(1691507914.994990) can1 0CF00400#007D912119000F91
(1691507915.014485) can1 0CF00400#307D912019000F91
(1691507915.028356) can1 18FEF100#FF0000FCFF3D00CF
(1691507915.034018) can1 10FF031C#0F7628091020E564
(1691507915.034573) can1 0CF00400#307D911E19000F91
(1691507915.035118) can1 10FF011C#E9FA311867B25EC1
(1691507915.035723) can1 10FF021C#40FA010000000000
(1691507915.054462) can1 0CF00400#707D91B118000F92
(1691507915.074953) can1 0CF00400#007D93C418000F93
(1691507915.094980) can1 0CF00400#207D92F218000F92
(1691507915.114947) can1 0CF00400#107D92FD18000F92
(1691507915.128324) can1 18FEF100#FF0000FCFF3D00CF
(1691507915.134247) can1 10FF031C#0F16AF0A1020E564
(1691507915.134790) can1 10FF011C#E9FA311867B25EC1
(1691507915.135373) can1 10FF021C#B07B010000000000
(1691507915.164334) can1 0CF00400#207D92F518000F92
(1691507915.164899) can1 0CF00400#307D92FD18000F92
(1691507915.174950) can1 0CF00400#207D920B19000F92
(1691507915.194984) can1 0CF00400#207D92EF18000F92
(1691507915.214482) can1 0CF00400#107D93BF18000F93
(1691507915.228381) can1 18FEF100#FF0000FCFF3D00CF
(1691507915.234220) can1 10FF031C#0FB6350C1020E564
(1691507915.234772) can1 0CF00400#707D92E918000F93
(1691507915.235324) can1 10FF011C#EAFA311867B25EC1
(1691507915.235905) can1 10FF021C#A06D010000000000
(1691507915.254476) can1 0CF00400#307D920B19000F92
(1691507915.275521) can1 0CF00400#007D921919000F92
(1691507915.295506) can1 0CF00400#207D920719000F92
(1691507915.314946) can1 0CF00400#307D921119000F92
(1691507915.328359) can1 18FEF100#FF0000FCFF3D00CF
(1691507915.332807) can1 10FF031C#0F56BC0D1020E564
(1691507915.333359) can1 10FF011C#EAFA311868B25EC1
(1691507915.333944) can1 10FF021C#40FA010000000000
(1691507915.334935) can1 0CF00400#207D921A19000F92
(1691507915.354467) can1 0CF00400#407D92C418000F93
(1691507915.374964) can1 0CF00400#207D93DC18000F93
(1691507915.394994) can1 0CF00400#307D920419000F92
(1691507915.414534) can1 0CF00400#207D921819000F92
(1691507915.428365) can1 18FEF100#FF0000FCFF3D00CF
(1691507915.434960) can1 0CF00400#007D922619000F92
(1691507915.440156) can1 10FF031C#0FB600001120E564
(1691507915.440706) can1 10FF011C#EAFA311868B25EC1
(1691507915.441290) can1 10FF021C#00E1000000000000
(1691507915.470243) can1 0CF00400#107D921D19000F92
(1691507915.474948) can1 0CF00400#107D922819000F92
(1691507915.494991) can1 0CF00400#107D920619000F92
(1691507915.514554) can1 0CF00400#207D93C918000F93
(1691507915.528397) can1 18FEF100#FF0000FCFF3D00CF
(1691507915.534318) can1 10FF031C#0F5687011120E564
(1691507915.534876) can1 0CF00400#607D920119000F93
(1691507915.535430) can1 10FF011C#EAFA311868B25EC1
(1691507915.536011) can1 10FF021C#6016020000000000
(1691507915.554511) can1 0CF00400#207D921719000F92
(1691507915.574958) can1 0CF00400#007D921B19000F92
(1691507915.594998) can1 0CF00400#007D922419000F92
(1691507915.614546) can1 0CF00400#507D913219000F92
(1691507915.628433) can1 18FEF100#FF0000FCFF3D00CF
(1691507915.634155) can1 10FF031C#0FF60D031120E564
(1691507915.634713) can1 0CF00400#307D913219000F91
(1691507915.635265) can1 10FF011C#EAFA311869B25EC1
(1691507915.635849) can1 10FF021C#C089010000000000
(1691507915.654534) can1 0CF00400#407D91EE18000F92
(1691507915.674942) can1 0CF00400#707D910519000F92
(1691507915.694984) can1 0CF00400#207D912519000F91
(1691507915.714547) can1 0CF00400#707D903A19000F91
(1691507915.729034) can1 18FEF100#FF0000FCFF3D00CF
(1691507915.734504) can1 0CF00400#707D902719000F91
(1691507915.735869) can1 10FF031C#0F9694041120E564
(1691507915.736421) can1 10FF011C#EAFA311869B25EC1
(1691507915.737009) can1 10FF021C#10D0010000000000
(1691507915.765965) can1 0CF00400#007D911F19000F91
(1691507915.775512) can1 0CF00400#007D912719000F91
(1691507915.794989) can1 0CF00400#107D91EE18000F91
(1691507915.814555) can1 0CF00400#407D92AF18000F92
(1691507915.828466) can1 18FEF100#FF0000FCFF3D00CF
(1691507915.833277) can1 10FF031C#0F361B061120E564
(1691507915.833828) can1 10FF011C#EAFA311869B25EC1
(1691507915.834404) can1 10FF021C#D097010000000000
(1691507915.834979) can1 0CF00400#107D92E418000F92
(1691507915.854564) can1 0CF00400#607D91E918000F92
(1691507915.874967) can1 0CF00400#607D91F518000F92
(1691507915.894998) can1 0CF00400#707D91EA18000F92
(1691507915.914651) can1 0CF00400#107D92F718000F92
(1691507915.928561) can1 18FEF100#FF0000FCFF3D00CF
(1691507915.933971) can1 10FF031C#0FD6A1071120E564
(1691507915.934506) can1 10FF011C#EAFA311869B25EC1
(1691507915.935082) can1 10FF021C#D0B6000000000000
(1691507915.935650) can1 0CF00400#607D910F19000F92
(1691507915.954650) can1 0CF00400#107D92B818000F92
(1691507915.974952) can1 0CF00400#707D92D218000F93
(1691507915.994990) can1 0CF00400#207D92F618000F92
(1691507916.014658) can1 0CF00400#007D920819000F92
(1691507916.028476) can1 18FEF100#FF0000FCFF3D00CF
(1691507916.034175) can1 10FF031C#0F7628091120E564
(1691507916.034725) can1 10FF011C#EAFA311869B25EC1
(1691507916.035300) can1 10FF021C#D0B6000000000000
(1691507916.064269) can1 0CF00400#007D920419000F92
(1691507916.064829) can1 0CF00400#007D920219000F92
(1691507916.074970) can1 0CF00400#007D920A19000F92
(1691507916.094994) can1 0CF00400#007D92F218000F92
(1691507916.114953) can1 0CF00400#707D92BC18000F93
(1691507916.128481) can1 18FEF100#FF0000FCFF3D00CF
(1691507916.134220) can1 10FF031C#0F16AF0A1120E564
(1691507916.134779) can1 0CF00400#507D92E718000F93
(1691507916.135330) can1 10FF011C#EAFA311869B25EC1
(1691507916.135914) can1 10FF021C#40FA010000000000
(1691507916.154632) can1 0CF00400#107D920F19000F92
(1691507916.174964) can1 0CF00400#707D911519000F92
(1691507916.195018) can1 0CF00400#207D920419000F92
(1691507916.214673) can1 0CF00400#407D920D19000F93
(1691507916.228488) can1 18FEF100#FF0000FCFF3D00CF
(1691507916.234192) can1 10FF031C#0FB6350C1120E564
(1691507916.234739) can1 10FF011C#EAFA31186AB25EC1
(1691507916.235322) can1 10FF021C#10EF000000000000
(1691507916.264280) can1 0CF00400#507D920419000F93
(1691507916.264847) can1 0CF00400#207D93A918000F93
(1691507916.275547) can1 0CF00400#107D94C818000F94
(1691507916.295526) can1 0CF00400#207D93F218000F93
(1691507916.314974) can1 0CF00400#107D930319000F93
(1691507916.328505) can1 18FEF100#FF0000FCFF3D00CF
(1691507916.333084) can1 10FF031C#0F56BC0D1120E564
(1691507916.333630) can1 10FF011C#EAFA31186AB25EC1
(1691507916.334222) can1 10FF021C#20FD000000000000
(1691507916.334925) can1 0CF00400#607D921D19000F93
(1691507916.354609) can1 0CF00400#407D922719000F93
(1691507916.374970) can1 0CF00400#107D924319000F92
(1691507916.395003) can1 0CF00400#407D913519000F92
(1691507916.414721) can1 0CF00400#207D920819000F92
(1691507916.428551) can1 18FEF100#FF0000FCFF3D00CF
(1691507916.434956) can1 0CF00400#307D914F19000F91
(1691507916.440995) can1 10FF031C#10B600001220E564
(1691507916.441538) can1 10FF011C#EAFA31186AB25EC1
(1691507916.442129) can1 10FF021C#20FD000000000000
(1691507916.471086) can1 0CF00400#307D906819000F90
(1691507916.474951) can1 0CF00400#707D8F6719000F90
(1691507916.494987) can1 0CF00400#707D8F5A19000F90
(1691507916.514676) can1 0CF00400#707D8F4E19000F90
(1691507916.528582) can1 18FEF100#FF0000FCFF3D00CF
(1691507916.534658) can1 0CF00400#107D903819000F90
(1691507916.535202) can1 10FF011C#EAFA31186AB25EC1
(1691507916.535779) can1 10FF021C#5027010000000000
(1691507916.536335) can1 10FF031C#105687011220E564
(1691507916.554659) can1 0CF00400#707D90D318000F91
(1691507916.574961) can1 0CF00400#407D91DD18000F92
(1691507916.595022) can1 0CF00400#207D91F218000F91
(1691507916.614708) can1 0CF00400#107D91FC18000F91
(1691507916.628589) can1 18FEF100#FF0000FCFF3D00CF
(1691507916.634409) can1 10FF031C#0FF60D031220E564
(1691507916.634972) can1 0CF00400#307D91E018000F91
(1691507916.635520) can1 10FF011C#EAFA31186AB25EC1
(1691507916.636095) can1 10FF021C#F0B3010000000000
(1691507916.654677) can1 0CF00400#607D91DB18000F92
(1691507916.674958) can1 0CF00400#607D91F318000F92
(1691507916.695002) can1 0CF00400#507D91CA18000F92
(1691507916.714676) can1 0CF00400#707D92A118000F93
(1691507916.729176) can1 18FEF100#FF0000FCFF3D00CF
(1691507916.734411) can1 10FF031C#0F9694041220E564
(1691507916.734954) can1 10FF011C#EAFA31186AB25EC1
(1691507916.735530) can1 10FF021C#D0B6000000000000
(1691507916.764512) can1 0CF00400#207D92E018000F92
(1691507916.765070) can1 0CF00400#707D91EC18000F92
(1691507916.775512) can1 0CF00400#607D910719000F92
(1691507916.794998) can1 0CF00400#607D91FF18000F92
(1691507916.814710) can1 0CF00400#707D910319000F92
(1691507916.828610) can1 18FEF100#FF0000FCFF3D00CF
(1691507916.832979) can1 10FF031C#0F361B061220E564
(1691507916.833527) can1 10FF011C#EAFA31186BB25EC1
(1691507916.834118) can1 10FF021C#20FD000000000000
(1691507916.834934) can1 0CF00400#507D911819000F92
(1691507916.854727) can1 0CF00400#007D92C318000F92
(1691507916.874987) can1 0CF00400#507D92D618000F93
(1691507916.895080) can1 0CF00400#007D92FC18000F92
(1691507916.914745) can1 0CF00400#707D910D19000F92
(1691507916.928673) can1 18FEF100#FF0000FCFF3D00CF
(1691507916.934881) can1 10FF031C#0FD6A1071220E564
(1691507916.935422) can1 10FF011C#EBFA31186BB25EC1
(1691507916.936001) can1 10FF021C#A06D010000000000
(1691507916.964968) can1 0CF00400#707D910619000F92
(1691507916.965527) can1 0CF00400#007D921119000F92
(1691507916.974964) can1 0CF00400#707D911519000F92
(1691507916.995000) can1 0CF00400#007D92F218000F92
(1691507917.014773) can1 0CF00400#107D93B518000F93
(1691507917.028655) can1 18FEF100#FF0000FCFF3D00CF
(1691507917.034735) can1 0CF00400#707D92E718000F93
(1691507917.035271) can1 10FF011C#EBFA31186BB25EC1
(1691507917.035854) can1 10FF021C#10EF000000000000
(1691507917.036409) can1 10FF031C#107628091220E564
(1691507917.054728) can1 0CF00400#407D92F218000F93
(1691507917.074999) can1 0CF00400#307D92F618000F92
(1691507917.095003) can1 0CF00400#307D92F318000F92
(1691507917.114964) can1 0CF00400#207D920B19000F92
(1691507917.128662) can1 18FEF100#FF0000FCFF3D00CF
(1691507917.134325) can1 10FF031C#0F16AF0A1220E564
(1691507917.134877) can1 10FF011C#EAFA31186CB25EC1
(1691507917.135465) can1 10FF021C#905F010000000000
(1691507917.164429) can1 0CF00400#607D911E19000F92
(1691507917.164969) can1 0CF00400#707D91D518000F92
(1691507917.174973) can1 0CF00400#107D920519000F92
(1691507917.194996) can1 0CF00400#107D913219000F91
(1691507917.214796) can1 0CF00400#607D904B19000F91
(1691507917.228711) can1 18FEF100#FF0000FCFF3D00CF
(1691507917.234807) can1 0CF00400#307D905119000F90
(1691507917.235358) can1 10FF011C#EAFA31186CB25EC1
(1691507917.235942) can1 10FF021C#10EF000000000000
(1691507917.236499) can1 10FF031C#10B6350C1220E564
(1691507917.254765) can1 0CF00400#407D904A19000F90
(1691507917.275557) can1 0CF00400#407D904F19000F90
(1691507917.295546) can1 0CF00400#407D901E19000F90
(1691507917.314954) can1 0CF00400#607D91DB18000F92
(1691507917.328652) can1 18FEF100#FF0000FCFF3D00CF
(1691507917.334093) can1 10FF031C#1056BC0D1220E564
(1691507917.334635) can1 10FF011C#EBFA31186CB25EC1
(1691507917.335216) can1 10FF021C#A06D010000000000
(1691507917.364181) can1 0CF00400#407D91FA18000F92
(1691507917.364745) can1 0CF00400#307D910019000F91
(1691507917.374998) can1 0CF00400#407D91F618000F91
(1691507917.394995) can1 0CF00400#607D91E618000F92
(1691507917.414810) can1 0CF00400#707D91EE18000F92
(1691507917.428658) can1 18FEF100#FF0000FCFF3D00CF
(1691507917.434987) can1 0CF00400#607D91F218000F92
(1691507917.440696) can1 10FF031C#10B600001320E564
(1691507917.441243) can1 10FF011C#EAFA31186DB25EC1
(1691507917.441826) can1 10FF021C#10EF000000000000
(1691507917.454816) can1 0CF00400#207D92A418000F92
(1691507917.474979) can1 0CF00400#707D92BF18000F93
(1691507917.495144) can1 0CF00400#207D92EA18000F92
(1691507917.514845) can1 0CF00400#007D920A19000F92
(1691507917.528771) can1 18FEF100#FF0000FCFF3D00CF
(1691507917.534260) can1 10FF031C#0F5687011320E564
(1691507917.534795) can1 10FF011C#EBFA31186DB25EC1
(1691507917.535387) can1 10FF021C#20FD000000000000
(1691507917.564332) can1 0CF00400#607D910D19000F92
(1691507917.564906) can1 0CF00400#007D920B19000F92
(1691507917.574994) can1 0CF00400#607D911A19000F92
(1691507917.595350) can1 0CF00400#607D91F918000F92
(1691507917.614836) can1 0CF00400#607D92CA18000F93
(1691507917.628739) can1 18FEF100#FF0000FCFF3D00CF
(1691507917.634224) can1 10FF031C#0FF60D031320E564
(1691507917.634772) can1 10FF011C#EBFA31186DB25EC1
(1691507917.635356) can1 10FF021C#6054000000000000
(1691507917.635941) can1 0CF00400#207D92FD18000F92
(1691507917.654828) can1 0CF00400#007D920319000F92
(1691507917.674975) can1 0CF00400#607D911819000F92
(1691507917.694928) can1 0CF00400#607D911119000F92
(1691507917.714879) can1 0CF00400#707D911C19000F92
(1691507917.729267) can1 18FEF100#FF0000FCFF3D00CF
(1691507917.734123) can1 10FF031C#0F9794041320E564
(1691507917.734672) can1 10FF011C#EBFA31186DB25EC1
(1691507917.735255) can1 10FF021C#8070000000000000
(1691507917.764199) can1 0CF00400#607D912719000F92
(1691507917.764777) can1 0CF00400#307D92C318000F92
(1691507917.775560) can1 0CF00400#307D93D518000F93
(1691507917.794984) can1 0CF00400#707D92FD18000F93
(1691507917.814870) can1 0CF00400#607D920419000F93
(1691507917.828779) can1 18FEF100#FF0000FCFF3D00CF
(1691507917.834826) can1 0CF00400#707D92FB18000F93
(1691507917.836736) can1 10FF031C#0F371B061320E564
(1691507917.837283) can1 10FF011C#EBFA31186EB25EC1
(1691507917.837867) can1 10FF021C#E0C4000000000000
(1691507917.854842) can1 0CF00400#007D930B19000F93
(1691507917.874976) can1 0CF00400#607D920F19000F93
(1691507917.895540) can1 0CF00400#607D92F618000F93
(1691507917.914890) can1 0CF00400#307D93CA18000F93
(1691507917.928797) can1 18FEF100#FF0000FCFF3D00CF
(1691507917.934385) can1 10FF031C#0FD7A1071320E564
(1691507917.934938) can1 10FF011C#EBFA31186EB25EC1
(1691507917.935514) can1 10FF021C#D097010000000000
(1691507917.964478) can1 0CF00400#707D920519000F93
(1691507917.965037) can1 0CF00400#007D923319000F92
(1691507917.974971) can1 0CF00400#207D914719000F91
(1691507917.994987) can1 0CF00400#707D904B19000F91
(1691507918.015101) can1 0CF00400#407D905D19000F91
(1691507918.028816) can1 18FEF100#FF0000FCFF3D00CF
(1691507918.034352) can1 10FF031C#0F7728091320E564
(1691507918.034902) can1 10FF011C#EBFA31186EB25EC1
(1691507918.035466) can1 0CF00400#007D906519000F90
(1691507918.036049) can1 10FF021C#00E1000000000000
(1691507918.054890) can1 0CF00400#407D900C19000F90
(1691507918.074975) can1 0CF00400#707D902419000F91
(1691507918.094977) can1 0CF00400#407D903119000F90
(1691507918.114996) can1 0CF00400#307D903419000F90
(1691507918.128775) can1 18FEF100#FF0000FCFF3D00CF
(1691507918.134911) can1 0CF00400#407D901819000F91
(1691507918.135465) can1 10FF011C#EBFA31186EB25EC1
(1691507918.136044) can1 10FF021C#8051010000000000
(1691507918.136592) can1 10FF031C#0F17AF0A1320E564
(1691507918.165020) can1 0CF00400#007D910319000F91
(1691507918.174976) can1 0CF00400#207D910F19000F91
(1691507918.195001) can1 0CF00400#307D91DD18000F91
(1691507918.214926) can1 0CF00400#407D92A818000F93
(1691507918.228812) can1 18FEF100#FF0000FCFF3D00CF
(1691507918.233948) can1 10FF031C#0FB7350C1320E564
(1691507918.234500) can1 10FF011C#EBFA31186EB25EC1
(1691507918.235084) can1 10FF021C#C089010000000000
(1691507918.235653) can1 0CF00400#107D92D518000F92
(1691507918.254912) can1 0CF00400#707D91E418000F92
(1691507918.275553) can1 0CF00400#707D91E918000F92
(1691507918.295545) can1 0CF00400#007D92EB18000F92
(1691507918.315006) can1 0CF00400#707D91F318000F92
(1691507918.328813) can1 18FEF100#FF0000FCFF3D00CF
(1691507918.334354) can1 10FF031C#0F57BC0D1320E564
(1691507918.334913) can1 10FF011C#EBFA31186FB25EC1
(1691507918.335495) can1 10FF021C#10EF000000000000
(1691507918.364443) can1 0CF00400#707D91EF18000F92
(1691507918.365014) can1 0CF00400#307D92A818000F92
(1691507918.375003) can1 0CF00400#707D92C818000F93
(1691507918.395007) can1 0CF00400#307D92E518000F92
(1691507918.414981) can1 0CF00400#007D92FD18000F92
(1691507918.428793) can1 18FEF100#FF0000FCFF3D00CF
(1691507918.434993) can1 0CF00400#707D91FE18000F92
(1691507918.440366) can1 10FF031C#0FB700001420E564
(1691507918.440920) can1 10FF011C#EBFA31186FB25EC1
(1691507918.441502) can1 10FF021C#C0A8000000000000
(1691507918.454918) can1 0CF00400#007D920019000F92
(1691507918.475010) can1 0CF00400#007D921419000F92
(1691507918.495047) can1 0CF00400#007D92E818000F92
(1691507918.514945) can1 0CF00400#207D93B318000F93
(1691507918.528872) can1 18FEF100#FF0000FCFF3D00CF
(1691507918.534445) can1 10FF031C#0F5787011420E564
(1691507918.535001) can1 10FF011C#EBFA31186FB25EC1
(1691507918.535593) can1 10FF021C#6016020000000000
(1691507918.564534) can1 0CF00400#707D92F118000F93
(1691507918.565091) can1 0CF00400#507D92F118000F93
(1691507918.574990) can1 0CF00400#607D92FA18000F93
(1691507918.595038) can1 0CF00400#007D93F218000F93
(1691507918.615006) can1 0CF00400#207D93FF18000F93
(1691507918.628852) can1 18FEF100#FF0000FCFF3D00CF
(1691507918.634295) can1 10FF031C#0FF70D031420E564
(1691507918.634852) can1 10FF011C#EBFA31186FB25EC1
(1691507918.635437) can1 10FF021C#6054000000000000
(1691507918.635995) can1 0CF00400#107D930B19000F93
(1691507918.654979) can1 0CF00400#407D93B818000F93
(1691507918.675009) can1 0CF00400#007D94DA18000F94
(1691507918.695009) can1 0CF00400#007D931719000F93
(1691507918.715012) can1 0CF00400#307D923C19000F92
(1691507918.729435) can1 18FEF100#FF0000FCFF3D00CF
(1691507918.733078) can1 10FF031C#0F9794041420E564
(1691507918.733635) can1 10FF011C#EBFA31186FB25EC1
(1691507918.734228) can1 10FF021C#20FD000000000000
(1691507918.734959) can1 0CF00400#507D915119000F92
(1691507918.754980) can1 0CF00400#007D917419000F91
(1691507918.775567) can1 0CF00400#307D908119000F90
(1691507918.795024) can1 0CF00400#707D8F6B19000F90
(1691507918.815003) can1 0CF00400#407D903919000F90
(1691507918.828853) can1 18FEF100#FF0000FCFF3D00CF
(1691507918.834478) can1 10FF031C#0F371B061420E564
(1691507918.835030) can1 10FF011C#EBFA311870B25EC1
(1691507918.835615) can1 10FF021C#C0A8000000000000
(1691507918.864576) can1 0CF00400#007D905319000F90
(1691507918.865129) can1 0CF00400#607D8F5619000F90
(1691507918.875047) can1 0CF00400#707D8F3819000F90
(1691507918.895652) can1 0CF00400#507D901019000F91
(1691507918.915042) can1 0CF00400#007D91FE18000F91
(1691507918.928927) can1 18FEF100#FF0000FCFF3D00CF
(1691507918.934314) can1 10FF031C#0FD7A1071420E564
(1691507918.934857) can1 10FF011C#ECFA311870B25EC1
(1691507918.935437) can1 10FF021C#7062000000000000
(1691507918.936005) can1 0CF00400#007D91ED18000F91
(1691507918.955031) can1 0CF00400#007D928918000F92
(1691507918.975031) can1 0CF00400#507D92B818000F93
(1691507918.995023) can1 0CF00400#007D92D518000F92
(1691507919.015003) can1 0CF00400#007D92EA18000F92
(1691507919.028922) can1 18FEF100#FF0000FCFF3D00CF
(1691507919.034364) can1 10FF031C#0F7728091420E564
(1691507919.034903) can1 10FF011C#ECFA311870B25EC1
(1691507919.035481) can1 10FF021C#B07B010000000000
(1691507919.064440) can1 0CF00400#607D91F918000F92
(1691507919.065003) can1 0CF00400#707D91F818000F92
(1691507919.075081) can1 0CF00400#707D910B19000F92
(1691507919.095055) can1 0CF00400#007D92E118000F92
(1691507919.115082) can1 0CF00400#107D93B718000F93
(1691507919.128945) can1 18FEF100#FF0000FCFF3D00CF
(1691507919.134977) can1 10FF031C#0F17AF0A1420E564
(1691507919.135532) can1 0CF00400#507D92E918000F93
(1691507919.136084) can1 10FF011C#EBFA311870B25EC1
(1691507919.136668) can1 10FF021C#60F7020000000000
(1691507919.155041) can1 0CF00400#207D92F718000F92
(1691507919.175104) can1 0CF00400#107D92FC18000F92
(1691507919.195075) can1 0CF00400#107D92FE18000F92
(1691507919.215087) can1 0CF00400#107D920619000F92
(1691507919.228937) can1 18FEF100#FF0000FCFF3D00CF
(1691507919.233371) can1 10FF031C#0FB7350C1420E564
(1691507919.233919) can1 10FF011C#ECFA311871B25EC1
(1691507919.234503) can1 10FF021C#300B010000000000
(1691507919.235558) can1 0CF00400#007D920E19000F92
(1691507919.255060) can1 0CF00400#307D92C618000F92
(1691507919.275580) can1 0CF00400#707D92E418000F93
(1691507919.295589) can1 0CF00400#207D920D19000F92
(1691507919.315155) can1 0CF00400#007D922019000F92
(1691507919.328974) can1 18FEF100#FF0000FCFF3D00CF
(1691507919.334355) can1 10FF031C#0F57BC0D1420E564
(1691507919.334920) can1 10FF011C#ECFA311871B25EC1
(1691507919.335488) can1 10FF021C#E0C4000000000000
(1691507919.364445) can1 0CF00400#007D920F19000F92
(1691507919.365001) can1 0CF00400#207D921119000F92
(1691507919.375120) can1 0CF00400#107D922119000F92
(1691507919.395651) can1 0CF00400#207D92EF18000F92
(1691507919.415101) can1 0CF00400#407D93BB18000F93
(1691507919.428937) can1 18FEF100#FF0000FCFF3D00CF
(1691507919.435121) can1 0CF00400#607D92FC18000F93
(1691507919.440198) can1 10FF031C#0FB700001520E564
(1691507919.440751) can1 10FF011C#ECFA311871B25EC1
(1691507919.441320) can1 10FF021C#00E1000000000000
(1691507919.455121) can1 0CF00400#207D920A19000F92
(1691507919.475132) can1 0CF00400#007D922919000F92
(1691507919.495632) can1 0CF00400#407D913219000F92
(1691507919.515072) can1 0CF00400#207D914319000F91
(1691507919.528962) can1 18FEF100#FF0000FCFF3D00CF
(1691507919.534314) can1 10FF031C#0F5787011520E564
(1691507919.534851) can1 10FF011C#ECFA311871B25EC1
(1691507919.535429) can1 10FF021C#302A000000000000
(1691507919.564401) can1 0CF00400#507D906019000F91
(1691507919.564953) can1 0CF00400#707D900E19000F91
(1691507919.575159) can1 0CF00400#307D912019000F91
(1691507919.595649) can1 0CF00400#707D903519000F91
(1691507919.615121) can1 0CF00400#507D903C19000F91
(1691507919.629005) can1 18FEF100#FF0000FCFF3D00CF
(1691507919.634327) can1 10FF031C#0FF70D031520E564
(1691507919.634873) can1 10FF011C#ECFA311872B25EC1
(1691507919.635448) can1 10FF021C#B09A000000000000
(1691507919.636007) can1 0CF00400#707D901D19000F91
(1691507919.655118) can1 0CF00400#207D911319000F91
(1691507919.675158) can1 0CF00400#307D910A19000F91
(1691507919.695652) can1 0CF00400#607D91D318000F92
(1691507919.715125) can1 0CF00400#707D92A518000F93
(1691507919.729547) can1 18FEF100#FF0000FCFF3D00CF
(1691507919.733190) can1 10FF031C#0F9794041520E564
(1691507919.733739) can1 10FF011C#ECFA311872B25EC1
(1691507919.734319) can1 10FF021C#6035010000000000
(1691507919.735122) can1 0CF00400#407D92D218000F93
(1691507919.755093) can1 0CF00400#307D92E318000F92
(1691507919.775667) can1 0CF00400#207D92E818000F92
(1691507919.795651) can1 0CF00400#407D92E718000F92
(1691507919.815135) can1 0CF00400#407D92F518000F92
(1691507919.828987) can1 18FEF100#FF0000FCFF3D00CF
(1691507919.834335) can1 10FF031C#0F371B061520E564
(1691507919.834884) can1 10FF011C#ECFA311872B25EC1
(1691507919.835460) can1 10FF021C#F0D2000000000000
(1691507919.864436) can1 0CF00400#307D92FF18000F92
(1691507919.864993) can1 0CF00400#707D92AE18000F93
(1691507919.875187) can1 0CF00400#107D93EB18000F93
(1691507919.895664) can1 0CF00400#307D920819000F92
(1691507919.915161) can1 0CF00400#207D921B19000F92
(1691507919.929082) can1 18FEF100#FF0000FCFF3D00CF
(1691507919.934337) can1 10FF031C#0FD7A1071520E564
(1691507919.934886) can1 10FF011C#ECFA311872B25EC1
(1691507919.935465) can1 10FF021C#5027010000000000
(1691507919.936034) can1 0CF00400#007D922A19000F92
(1691507919.955126) can1 0CF00400#007D922519000F92
(1691507919.975191) can1 0CF00400#007D924219000F92
(1691507919.995632) can1 0CF00400#607D910F19000F92
(1691507920.015180) can1 0CF00400#007D93DF18000F93
(1691507920.029029) can1 18FEF100#FF0000FCFF3D00CF
(1691507920.034393) can1 10FF031C#0F7728091520E564
(1691507920.034941) can1 10FF011C#ECFA311872B25EC1
(1691507920.035522) can1 10FF021C#302A000000000000
(1691507920.064477) can1 0CF00400#407D921819000F92
(1691507920.065038) can1 0CF00400#007D922B19000F92
(1691507920.075247) can1 0CF00400#607D912219000F92
(1691507920.095659) can1 0CF00400#007D922019000F92
(1691507920.115196) can1 0CF00400#707D912919000F92
(1691507920.129074) can1 18FEF100#FF0000FCFF3D00CF
(1691507920.134319) can1 10FF031C#0F17AF0A1520E564
(1691507920.134872) can1 10FF011C#EDFA311873B25EC1
(1691507920.135456) can1 10FF021C#300B010000000000
(1691507920.136012) can1 0CF00400#607D912119000F92
(1691507920.155181) can1 0CF00400#307D92CB18000F92
(1691507920.175590) can1 0CF00400#707D92E718000F93
(1691507920.195649) can1 0CF00400#207D920719000F92
(1691507920.215190) can1 0CF00400#107D921519000F92
(1691507920.229090) can1 18FEF100#FF0000FCFF3D00CF
(1691507920.233059) can1 10FF031C#0FB7350C1520E564
(1691507920.233612) can1 10FF011C#ECFA311873B25EC1
(1691507920.234195) can1 10FF021C#B07B010000000000
(1691507920.235586) can1 0CF00400#007D920F19000F92
(1691507920.255211) can1 0CF00400#107D920F19000F92
(1691507920.275608) can1 0CF00400#007D922319000F92
(1691507920.295621) can1 0CF00400#007D92FE18000F92
(1691507920.315257) can1 0CF00400#607D92E118000F93
(1691507920.329104) can1 18FEF100#FF0000FCFF3D00CF
(1691507920.334394) can1 10FF031C#0F57BC0D1520E564
(1691507920.334960) can1 10FF011C#EDFA311873B25EC1
(1691507920.335533) can1 10FF021C#B07B010000000000
(1691507920.364488) can1 0CF00400#107D921A19000F92
(1691507920.365050) can1 0CF00400#607D912C19000F92
(1691507920.375222) can1 0CF00400#407D913D19000F91
(1691507920.395646) can1 0CF00400#407D913019000F91
(1691507920.415213) can1 0CF00400#407D913319000F92
(1691507920.429076) can1 18FEF100#FF0000FCFF3D00CF
(1691507920.435258) can1 0CF00400#107D913319000F91
(1691507920.440089) can1 10FF031C#0FB700001620E564
(1691507920.440642) can1 10FF011C#EDFA311873B25EC1
(1691507920.441233) can1 10FF021C#20FD000000000000
(1691507920.455225) can1 0CF00400#707D91DB18000F92
(1691507920.475287) can1 0CF00400#107D920419000F92
(1691507920.495659) can1 0CF00400#407D912019000F92
(1691507920.515238) can1 0CF00400#307D912619000F91
(1691507920.529145) can1 18FEF100#FF0000FCFF3D00CF
(1691507920.535224) can1 0CF00400#307D911B19000F91
(1691507920.536959) can1 10FF031C#105787011620E564
(1691507920.537511) can1 10FF011C#EDFA311873B25EC1
(1691507920.538094) can1 10FF021C#00E1000000000000
(1691507920.567057) can1 0CF00400#307D912919000F91
(1691507920.575278) can1 0CF00400#407D912019000F91
(1691507920.595670) can1 0CF00400#007D92E718000F92
(1691507920.615262) can1 0CF00400#607D92CA18000F93
(1691507920.629117) can1 18FEF100#FF0000FCFF3D00CF
(1691507920.635072) can1 10FF031C#10F70D031620E564
(1691507920.635643) can1 0CF00400#307D92F018000F92
(1691507920.636196) can1 10FF011C#EDFA311874B25EC1
(1691507920.636774) can1 10FF021C#30EC010000000000
(1691507920.655269) can1 0CF00400#107D920019000F92
(1691507920.675303) can1 0CF00400#107D920119000F92
(1691507920.695654) can1 0CF00400#207D92F718000F92
(1691507920.715283) can1 0CF00400#207D920019000F92
(1691507920.730264) can1 18FEF100#FF0000FCFF3D00CF
(1691507920.733368) can1 10FF031C#109794041620E564
(1691507920.733920) can1 10FF011C#EDFA311874B25EC1
(1691507920.734495) can1 10FF021C#D0B6000000000000
(1691507920.735296) can1 0CF00400#107D920019000F92
(1691507920.755272) can1 0CF00400#607D92A918000F93
(1691507920.775633) can1 0CF00400#007D93E718000F93
(1691507920.795666) can1 0CF00400#107D920819000F92
(1691507920.815298) can1 0CF00400#107D921C19000F92
(1691507920.829132) can1 18FEF100#FF0000FCFF3D00CF
(1691507920.835066) can1 10FF031C#10371B061620E564
(1691507920.835616) can1 10FF011C#EEFA311875B25EC1
(1691507920.836194) can1 10FF021C#8051010000000000
(1691507920.865151) can1 0CF00400#607D912019000F92
(1691507920.865712) can1 0CF00400#007D921C19000F92
(1691507920.875332) can1 0CF00400#007D923819000F92
(1691507920.895677) can1 0CF00400#107D92F018000F92
(1691507920.915306) can1 0CF00400#407D93C118000F93
(1691507920.929188) can1 18FEF100#FF0000FCFF3D00CF
(1691507920.934975) can1 10FF031C#10D7A1071620E564
(1691507920.935543) can1 0CF00400#007D93F318000F93
(1691507920.936090) can1 10FF011C#EEFA311875B25EC1
(1691507920.936673) can1 10FF021C#907E000000000000
(1691507920.955295) can1 0CF00400#607D92F918000F93
(1691507920.975382) can1 0CF00400#707D92FA18000F93
(1691507920.995665) can1 0CF00400#007D930219000F93
(1691507921.015317) can1 0CF00400#707D920B19000F93
(1691507921.029172) can1 18FEF100#FF0000FCFF3D00CF
(1691507921.034522) can1 10FF031C#107728091620E564
(1691507921.035070) can1 10FF011C#EEFA311875B25EC1
(1691507921.035647) can1 10FF021C#8051010000000000
(1691507921.064613) can1 0CF00400#607D920C19000F93
(1691507921.065173) can1 0CF00400#007D93D918000F93
(1691507921.075376) can1 0CF00400#007D930219000F93
(1691507921.095657) can1 0CF00400#207D923219000F92
(1691507921.115345) can1 0CF00400#207D915719000F91
(1691507921.129218) can1 18FEF100#FF0000FCFF3D00CF
(1691507921.135042) can1 10FF031C#1017AF0A1620E564
(1691507921.135598) can1 0CF00400#607D905919000F91
(1691507921.136145) can1 10FF011C#EEFA311875B25EC1
(1691507921.136752) can1 10FF021C#E0C4000000000000
(1691507921.155329) can1 0CF00400#407D906619000F90
(1691507921.175397) can1 0CF00400#207D906619000F90
(1691507921.195673) can1 0CF00400#307D901C19000F90
(1691507921.215393) can1 0CF00400#207D91FE18000F91
(1691507921.229192) can1 18FEF100#FF0000FCFF3D00CF
(1691507921.233460) can1 10FF031C#10B7350C1620E564
(1691507921.233990) can1 10FF011C#EFFA311875B25EC1
(1691507921.234570) can1 10FF021C#00E1000000000000
(1691507921.235551) can1 0CF00400#707D901919000F91
(1691507921.255329) can1 0CF00400#007D910919000F91
(1691507921.275641) can1 0CF00400#107D910519000F91
(1691507921.296209) can1 0CF00400#307D91F218000F91
(1691507921.315435) can1 0CF00400#507D91F118000F92
(1691507921.329208) can1 18FEF100#FF0000FCFF3D00CF
(1691507921.335000) can1 10FF031C#1057BC0D1620E564
(1691507921.335543) can1 10FF011C#EFFA311875B25EC1
(1691507921.336123) can1 10FF021C#5027010000000000
(1691507921.365086) can1 0CF00400#507D91E018000F92
(1691507921.365644) can1 0CF00400#607D928618000F93
(1691507921.375411) can1 0CF00400#007D93C118000F93
(1691507921.395689) can1 0CF00400#307D92E518000F92
(1691507921.415429) can1 0CF00400#007D92F818000F92
(1691507921.429262) can1 18FEF100#FF0000FCFF3D00CF
(1691507921.435427) can1 0CF00400#007D92FA18000F92
(1691507921.440291) can1 10FF031C#10B700001720E564
(1691507921.440841) can1 10FF011C#EFFA311876B25EC1
(1691507921.441422) can1 10FF021C#00C2010000000000
(1691507921.455371) can1 0CF00400#107D920B19000F92
(1691507921.475427) can1 0CF00400#007D921919000F92
(1691507921.495691) can1 0CF00400#007D92EC18000F92
(1691507921.515388) can1 0CF00400#707D92CD18000F93
(1691507921.529292) can1 18FEF100#FF0000FCFF3D00CF
(1691507921.534972) can1 10FF031C#105887011720E564
(1691507921.535515) can1 10FF011C#F0FA311876B25EC1
(1691507921.536087) can1 10FF021C#D097010000000000
(1691507921.565065) can1 0CF00400#307D92FC18000F92
(1691507921.565616) can1 0CF00400#707D912319000F92
(1691507921.575449) can1 0CF00400#507D911F19000F92
(1691507921.595685) can1 0CF00400#007D920F19000F92
(1691507921.615393) can1 0CF00400#707D911C19000F92
(1691507921.629289) can1 18FEF100#FF0000FCFF3D00CF
(1691507921.634588) can1 10FF031C#10F80D031720E564
(1691507921.635137) can1 10FF011C#EFFA311876B25EC1
(1691507921.635721) can1 10FF021C#20DE010000000000
(1691507921.636277) can1 0CF00400#507D911619000F92
(1691507921.655426) can1 0CF00400#507D92B818000F93
(1691507921.675454) can1 0CF00400#707D92EA18000F93
(1691507921.695730) can1 0CF00400#307D92FE18000F92
(1691507921.715437) can1 0CF00400#407D920919000F92
(1691507921.730448) can1 18FEF100#FF0000FCFF3D00CF
(1691507921.733423) can1 10FF031C#109894041720E564
(1691507921.733973) can1 10FF011C#F0FA311876B25EC1
(1691507921.734560) can1 10FF021C#A08C000000000000
(1691507921.735453) can1 0CF00400#307D920B19000F92
(1691507921.755441) can1 0CF00400#407D920819000F93
(1691507921.775646) can1 0CF00400#307D922819000F92
(1691507921.795731) can1 0CF00400#207D92FB18000F92
(1691507921.815481) can1 0CF00400#007D93E618000F93
(1691507921.829319) can1 18FEF100#FF0000FCFF3D00CF
(1691507921.835072) can1 10FF031C#10381B061720E564
(1691507921.835616) can1 10FF011C#F0FA311876B25EC1
(1691507921.836191) can1 10FF021C#D097010000000000
(1691507921.865146) can1 0CF00400#107D922219000F92
(1691507921.865709) can1 0CF00400#407D913C19000F91
(1691507921.875498) can1 0CF00400#007D914819000F91
(1691507921.895730) can1 0CF00400#707D904B19000F91
(1691507921.915479) can1 0CF00400#407D904A19000F91
(1691507921.929363) can1 18FEF100#FF0000FCFF3D00CF
(1691507921.934985) can1 10FF031C#10D8A1071720E564
(1691507921.935530) can1 10FF011C#F1FA311877B25EC1
(1691507921.936098) can1 0CF00400#307D903D19000F90
(1691507921.936683) can1 10FF021C#00E1000000000000
(1691507921.955470) can1 0CF00400#007D91F518000F91
(1691507921.975494) can1 0CF00400#107D911319000F91
(1691507921.995677) can1 0CF00400#707D902219000F91
(1691507922.015431) can1 0CF00400#607D902119000F91
(1691507922.029355) can1 18FEF100#FF0000FCFF3D00CF
(1691507922.035156) can1 10FF031C#107828091720E564
(1691507922.035698) can1 10FF011C#F1FA311877B25EC1
(1691507922.036279) can1 10FF021C#8070000000000000
(1691507922.065236) can1 0CF00400#107D910019000F91
(1691507922.065792) can1 0CF00400#407D910019000F92
(1691507922.075529) can1 0CF00400#507D910419000F92
(1691507922.095916) can1 0CF00400#007D92B718000F92
(1691507922.115528) can1 0CF00400#007D93B018000F93
(1691507922.129377) can1 18FEF100#FF0000FCFF3D00CF
(1691507922.135056) can1 10FF031C#1018AF0A1720E564
(1691507922.135615) can1 0CF00400#107D92ED18000F92
(1691507922.136170) can1 10FF011C#F1FA311878B25EC1
(1691507922.136897) can1 10FF021C#A08C000000000000
(1691507922.155499) can1 0CF00400#007D92F418000F92
(1691507922.175509) can1 0CF00400#707D910B19000F92
(1691507922.195536) can1 0CF00400#007D920419000F92
(1691507922.215519) can1 0CF00400#007D920719000F92
(1691507922.229376) can1 18FEF100#FF0000FCFF3D00CF
(1691507922.233943) can1 10FF031C#10B8350C1720E564
(1691507922.234493) can1 10FF011C#F2FA311878B25EC1
(1691507922.235076) can1 10FF021C#300B010000000000
(1691507922.235639) can1 0CF00400#607D910719000F92
(1691507922.255483) can1 0CF00400#407D92B218000F92
(1691507922.275637) can1 0CF00400#507D92E618000F93
(1691507922.296147) can1 0CF00400#007D920A19000F92
(1691507922.315567) can1 0CF00400#507D911F19000F92
(1691507922.329352) can1 18FEF100#FF0000FCFF3D00CF
(1691507922.335112) can1 10FF031C#1058BC0D1720E564
(1691507922.335659) can1 10FF011C#F2FA311878B25EC1
(1691507922.336243) can1 10FF021C#6054000000000000
(1691507922.365215) can1 0CF00400#507D911419000F92
(1691507922.365752) can1 0CF00400#607D911D19000F92
(1691507922.375556) can1 0CF00400#607D912E19000F92
(1691507922.395591) can1 0CF00400#007D92EB18000F92
(1691507922.415539) can1 0CF00400#107D93C918000F93
(1691507922.429356) can1 18FEF100#FF0000FCFF3D00CF
(1691507922.435585) can1 0CF00400#707D92EF18000F93
(1691507922.440506) can1 10FF031C#10B800001820E564
(1691507922.441060) can1 10FF011C#F2FA311878B25EC1
(1691507922.441644) can1 10FF021C#20DE010000000000
(1691507922.455509) can1 0CF00400#707D92FB18000F93
(1691507922.475587) can1 0CF00400#107D93F318000F93
(1691507922.495632) can1 0CF00400#407D93EA18000F93
(1691507922.515576) can1 0CF00400#307D93F818000F93
(1691507922.529396) can1 18FEF100#FF0000FCFF3D00CF
(1691507922.534559) can1 10FF031C#105887011820E564
(1691507922.535107) can1 10FF011C#F3FA311879B25EC1
(1691507922.535688) can1 10FF021C#10EF000000000000
(1691507922.564644) can1 0CF00400#107D93FC18000F93
(1691507922.565204) can1 0CF00400#407D93C218000F94
(1691507922.575598) can1 0CF00400#207D930C19000F93
(1691507922.595627) can1 0CF00400#207D923219000F92
(1691507922.615555) can1 0CF00400#407D915519000F91
(1691507922.629429) can1 18FEF100#FF0000FCFF3D00CF
(1691507922.635157) can1 10FF031C#10F80D031820E564
(1691507922.635716) can1 0CF00400#507D906F19000F91
(1691507922.636268) can1 10FF011C#F3FA311879B25EC1
(1691507922.636852) can1 10FF021C#B07B010000000000
(1691507922.655594) can1 0CF00400#207D907C19000F90
(1691507922.675595) can1 0CF00400#607D8F9819000F90
(1691507922.695621) can1 0CF00400#507D8F4A19000F90
(1691507922.715568) can1 0CF00400#407D903519000F90
(1691507922.730623) can1 18FEF100#FF0000FCFF3D00CF
(1691507922.735073) can1 10FF031C#109894041820E564
(1691507922.735619) can1 10FF011C#F3FA311879B25EC1
(1691507922.736211) can1 10FF021C#20FD000000000000
(1691507922.765152) can1 0CF00400#707D8F4B19000F90
(1691507922.765713) can1 0CF00400#107D903A19000F90
(1691507922.775661) can1 0CF00400#307D901D19000F90
(1691507922.795644) can1 0CF00400#607D901019000F91
(1691507922.815587) can1 0CF00400#007D910319000F91
(1691507922.829410) can1 18FEF100#FF0000FCFF3D00CF
(1691507922.835042) can1 10FF031C#10381B061820E564
(1691507922.835590) can1 10FF011C#F3FA31187AB25EC1
(1691507922.836157) can1 0CF00400#207D91E218000F91
(1691507922.836794) can1 10FF021C#B09A000000000000
(1691507922.855570) can1 0CF00400#307D929D18000F92
(1691507922.875627) can1 0CF00400#407D92CB18000F92
(1691507922.895715) can1 0CF00400#007D92F318000F92
(1691507922.915596) can1 0CF00400#607D910219000F92
(1691507922.929471) can1 18FEF100#FF0000FCFF3D00CF
(1691507922.935228) can1 10FF031C#10D8A1071820E564
(1691507922.935770) can1 10FF011C#F4FA31187AB25EC1
(1691507922.936353) can1 10FF021C#B07B010000000000
(1691507922.965317) can1 0CF00400#707D91F218000F92
(1691507922.965880) can1 0CF00400#007D92FD18000F92
(1691507922.975652) can1 0CF00400#007D920919000F92
(1691507922.995644) can1 0CF00400#207D92BC18000F92
(1691507923.015626) can1 0CF00400#207D93BC18000F93
(1691507923.029471) can1 18FEF100#FF0000FCFF3D00CF
(1691507923.034634) can1 10FF031C#107828091820E564
(1691507923.035170) can1 10FF011C#F4FA31187AB25EC1
(1691507923.035752) can1 10FF021C#B09A000000000000
(1691507923.036312) can1 0CF00400#407D92E618000F92
(1691507923.055614) can1 0CF00400#307D92FE18000F92
(1691507923.075690) can1 0CF00400#007D920F19000F92
(1691507923.096211) can1 0CF00400#107D920519000F92
(1691507923.115663) can1 0CF00400#107D921619000F92
(1691507923.129506) can1 18FEF100#FF0000FCFF3D00CF
(1691507923.133982) can1 10FF031C#1018AF0A1820E564
(1691507923.134524) can1 10FF011C#F4FA31187AB25EC1
(1691507923.135107) can1 10FF021C#E0C4000000000000
(1691507923.135679) can1 0CF00400#507D911E19000F92
(1691507923.155634) can1 0CF00400#407D92CB18000F93
(1691507923.175689) can1 0CF00400#507D920019000F93
(1691507923.196213) can1 0CF00400#007D921F19000F92
(1691507923.215638) can1 0CF00400#607D912519000F92
(1691507923.229521) can1 18FEF100#FF0000FCFF3D00CF
(1691507923.234642) can1 10FF031C#10B8350C1820E564
(1691507923.235190) can1 10FF011C#F5FA31187AB25EC1
(1691507923.235774) can1 10FF021C#00E1000000000000
(1691507923.264731) can1 0CF00400#707D911F19000F92
(1691507923.265280) can1 0CF00400#607D912919000F92
(1691507923.275713) can1 0CF00400#607D912C19000F92
(1691507923.296205) can1 0CF00400#707D91EE18000F92
(1691507923.315704) can1 0CF00400#407D92E918000F93
(1691507923.329532) can1 18FEF100#FF0000FCFF3D00CF
(1691507923.334454) can1 10FF031C#1058BC0D1820E564
(1691507923.334997) can1 10FF011C#F4FA31187BB25EC1
(1691507923.335584) can1 10FF021C#905F010000000000
(1691507923.336161) can1 0CF00400#107D921019000F92
(1691507923.355624) can1 0CF00400#607D912A19000F92
(1691507923.375678) can1 0CF00400#407D912D19000F92
(1691507923.395684) can1 0CF00400#407D912B19000F91
(1691507923.415664) can1 0CF00400#307D913219000F91
(1691507923.429501) can1 18FEF100#FF0000FCFF3D00CF
(1691507923.435703) can1 0CF00400#007D912119000F91
(1691507923.440361) can1 10FF031C#10B800001920E564
(1691507923.440909) can1 10FF011C#F5FA31187BB25EC1
(1691507923.441490) can1 10FF021C#5027010000000000
(1691507923.470434) can1 0CF00400#707D91E318000F92
(1691507923.475718) can1 0CF00400#407D911A19000F92
(1691507923.495687) can1 0CF00400#107D912519000F91
(1691507923.515683) can1 0CF00400#707D902719000F91
(1691507923.529573) can1 18FEF100#FF0000FCFF3D00CF
(1691507923.534580) can1 10FF031C#105887011920E564
(1691507923.535123) can1 10FF011C#F5FA31187BB25EC1
(1691507923.535705) can1 10FF021C#4038000000000000
(1691507923.536279) can1 0CF00400#007D911619000F91
(1691507923.555676) can1 0CF00400#107D911619000F91
(1691507923.575727) can1 0CF00400#107D911E19000F91
(1691507923.595705) can1 0CF00400#407D91C518000F91
(1691507923.615699) can1 0CF00400#307D92C918000F92
(1691507923.629536) can1 18FEF100#FF0000FCFF3D00CF
(1691507923.633103) can1 10FF031C#10F80D031920E564
(1691507923.633651) can1 10FF011C#F6FA31187CB25EC1
(1691507923.634243) can1 10FF021C#20FD000000000000
(1691507923.635743) can1 0CF00400#607D91F818000F92
(1691507923.655690) can1 0CF00400#507D910319000F92
(1691507923.675743) can1 0CF00400#507D910119000F92
(1691507923.695701) can1 0CF00400#607D910519000F92
(1691507923.715699) can1 0CF00400#607D910C19000F92
(1691507923.730735) can1 18FEF100#FF0000FCFF3D00CF
(1691507923.734378) can1 10FF031C#109894041920E564
(1691507923.734926) can1 10FF011C#F6FA31187CB25EC1
(1691507923.735510) can1 10FF021C#300B010000000000
(1691507923.764468) can1 0CF00400#607D91F518000F92
(1691507923.765028) can1 0CF00400#507D92B918000F93
(1691507923.775772) can1 0CF00400#407D92E418000F93
(1691507923.795730) can1 0CF00400#007D920419000F92
(1691507923.815710) can1 0CF00400#507D911719000F92
(1691507923.829557) can1 18FEF100#FF0000FCFF3D00CF
(1691507923.834573) can1 10FF031C#10381B061920E564
(1691507923.835127) can1 10FF011C#F6FA31187CB25EC1
(1691507923.835702) can1 10FF021C#B09A000000000000
(1691507923.836261) can1 0CF00400#607D910919000F92
(1691507923.855711) can1 0CF00400#707D910F19000F92
(1691507923.875766) can1 0CF00400#607D912519000F92
(1691507923.896315) can1 0CF00400#707D91D918000F92
(1691507923.915734) can1 0CF00400#607D92E118000F93
(1691507923.929593) can1 18FEF100#FF0000FCFF3D00CF
(1691507923.934474) can1 10FF031C#10D8A1071920E564
(1691507923.935022) can1 10FF011C#F6FA31187CB25EC1
(1691507923.935610) can1 10FF021C#905F010000000000
(1691507923.964567) can1 0CF00400#207D920219000F92
(1691507923.965135) can1 0CF00400#307D920C19000F92
(1691507923.975799) can1 0CF00400#307D920719000F92
(1691507923.995755) can1 0CF00400#507D920019000F93
(1691507924.015738) can1 0CF00400#507D920719000F93
(1691507924.029597) can1 18FEF100#FF0000FCFF3D00CF
(1691507924.034642) can1 10FF031C#107828091920E564
(1691507924.035185) can1 10FF011C#F7FA31187CB25EC1
(1691507924.035761) can1 10FF021C#D097010000000000
(1691507924.036320) can1 0CF00400#407D92F718000F93
(1691507924.055758) can1 0CF00400#407D93AF18000F94
(1691507924.075791) can1 0CF00400#207D93E918000F93
(1691507924.095727) can1 0CF00400#507D921019000F93
(1691507924.115800) can1 0CF00400#007D922019000F92
(1691507924.129604) can1 18FEF100#FF0000FCFF3D00CF
(1691507924.133367) can1 10FF031C#1018AF0A1920E564
(1691507924.133916) can1 10FF011C#F7FA31187DB25EC1
(1691507924.134507) can1 10FF021C#20FD000000000000
(1691507924.135799) can1 0CF00400#607D913819000F92
(1691507924.155766) can1 0CF00400#107D915519000F91
(1691507924.175821) can1 0CF00400#507D906419000F91
(1691507924.195786) can1 0CF00400#507D902419000F91
(1691507924.215737) can1 0CF00400#107D912619000F91
(1691507924.229627) can1 18FEF100#FF0000FCFF3D00CF
(1691507924.234628) can1 10FF031C#10B8350C1920E564
(1691507924.235176) can1 10FF011C#F7FA31187DB25EC1
(1691507924.235763) can1 10FF021C#A08C000000000000
(1691507924.264716) can1 0CF00400#407D904319000F90
(1691507924.265277) can1 0CF00400#207D904819000F90
(1691507924.275885) can1 0CF00400#307D903019000F90
(1691507924.296280) can1 0CF00400#607D901619000F91
(1691507924.315836) can1 0CF00400#707D901419000F91
(1691507924.329678) can1 18FEF100#FF0000FCFF3D00CF
(1691507924.334262) can1 10FF031C#1058BC0D1920E564
(1691507924.334818) can1 10FF011C#F8FA31187DB25EC1
(1691507924.335397) can1 10FF021C#7062000000000000
(1691507924.335970) can1 0CF00400#107D91E618000F91
(1691507924.355777) can1 0CF00400#407D929B18000F93
(1691507924.375840) can1 0CF00400#307D92D518000F92
(1691507924.395762) can1 0CF00400#707D91EF18000F92
(1691507924.415799) can1 0CF00400#607D91FE18000F92
(1691507924.429639) can1 18FEF100#FF0000FCFF3D00CF
(1691507924.435837) can1 0CF00400#707D91F318000F92
(1691507924.440458) can1 10FF031C#10B800001A20E564
(1691507924.441027) can1 10FF011C#F8FA31187DB25EC1
(1691507924.441597) can1 10FF021C#00E1000000000000
(1691507924.470551) can1 0CF00400#107D92FA18000F92
(1691507924.475847) can1 0CF00400#007D921319000F92
(1691507924.495831) can1 0CF00400#207D92C318000F92
(1691507924.515796) can1 0CF00400#007D93CC18000F93
(1691507924.529710) can1 18FEF100#FF0000FCFF3D00CF
(1691507924.534622) can1 10FF031C#105887011A20E564
(1691507924.535175) can1 10FF011C#F8FA31187DB25EC1
(1691507924.535758) can1 10FF021C#300B010000000000
(1691507924.536321) can1 0CF00400#407D92F118000F92
(1691507924.555806) can1 0CF00400#207D920919000F92
(1691507924.575876) can1 0CF00400#207D920A19000F92
(1691507924.595835) can1 0CF00400#207D920E19000F92
(1691507924.615789) can1 0CF00400#107D921619000F92
(1691507924.629678) can1 18FEF100#FF0000FCFF3D00CF
(1691507924.633402) can1 10FF031C#10F80D031A20E564
(1691507924.633953) can1 10FF011C#F9FA31187EB25EC1
(1691507924.634536) can1 10FF021C#C089010000000000
(1691507924.635861) can1 0CF00400#707D911719000F92
(1691507924.655819) can1 0CF00400#507D92DF18000F93
(1691507924.675895) can1 0CF00400#307D920619000F92
(1691507924.695816) can1 0CF00400#707D913019000F92
(1691507924.715874) can1 0CF00400#307D913D19000F91
(1691507924.730827) can1 18FEF100#FF0000FCFF3D00CF
(1691507924.735141) can1 10FF031C#109894041A20E564
(1691507924.735700) can1 10FF011C#F8FA31187EB25EC1
(1691507924.736282) can1 10FF021C#10D0010000000000
(1691507924.765218) can1 0CF00400#407D913119000F91
(1691507924.765769) can1 0CF00400#407D913B19000F91
(1691507924.775931) can1 0CF00400#207D913A19000F91
(1691507924.795894) can1 0CF00400#607D91DC18000F92
(1691507924.815906) can1 0CF00400#307D92F618000F92
(1691507924.830313) can1 18FEF100#FF0000FCFF3D00CF
(1691507924.834681) can1 10FF031C#10381B061A20E564
(1691507924.835231) can1 10FF011C#F9FA31187EB25EC1
(1691507924.835808) can1 10FF021C#F0B3010000000000
(1691507924.836368) can1 0CF00400#507D911719000F92
(1691507924.855847) can1 0CF00400#507D911D19000F92
(1691507924.875917) can1 0CF00400#307D912819000F91
(1691507924.896329) can1 0CF00400#307D912219000F91
(1691507924.915872) can1 0CF00400#307D912A19000F91
(1691507924.929723) can1 18FEF100#FF0000FCFF3D00CF
(1691507924.934610) can1 10FF031C#10D8A1071A20E564
(1691507924.935163) can1 10FF011C#F9FA31187EB25EC1
(1691507924.935746) can1 10FF021C#10EF000000000000
(1691507924.964699) can1 0CF00400#207D910B19000F91
(1691507924.965260) can1 0CF00400#407D92C918000F92
(1691507924.975960) can1 0CF00400#107D92F818000F92
(1691507924.995875) can1 0CF00400#507D911719000F92
(1691507925.015884) can1 0CF00400#307D911819000F91
(1691507925.029749) can1 18FEF100#FF0000FCFF3D00CF
(1691507925.034717) can1 10FF031C#107828091A20E564
(1691507925.035267) can1 10FF011C#F9FA31187FB25EC1
(1691507925.035846) can1 10FF021C#A04E020000000000
(1691507925.036409) can1 0CF00400#507D910E19000F92
(1691507925.055889) can1 0CF00400#507D911719000F92
(1691507925.075941) can1 0CF00400#507D911319000F92
(1691507925.095902) can1 0CF00400#707D91C518000F92
(1691507925.115963) can1 0CF00400#507D92CE18000F93
(1691507925.130364) can1 18FEF100#FF0000FCFF3D00CF
(1691507925.133341) can1 10FF031C#1018AF0A1A20E564
(1691507925.133893) can1 10FF011C#FAFA31187FB25EC1
(1691507925.134476) can1 10FF021C#7024020000000000
(1691507925.135921) can1 0CF00400#107D92FD18000F92
(1691507925.155850) can1 0CF00400#607D911B19000F92
(1691507925.175968) can1 0CF00400#607D910C19000F92
(1691507925.195926) can1 0CF00400#107D920619000F92
(1691507925.215947) can1 0CF00400#007D921919000F92
(1691507925.230335) can1 18FEF100#FF0000FCFF3D00CF
(1691507925.234508) can1 10FF031C#10B8350C1A20E564
(1691507925.235063) can1 10FF011C#FAFA311880B25EC1
(1691507925.235647) can1 10FF021C#40FA010000000000
(1691507925.264592) can1 0CF00400#707D91FC18000F92
(1691507925.265162) can1 0CF00400#007D93C618000F93
(1691507925.275993) can1 0CF00400#307D920219000F92
(1691507925.296304) can1 0CF00400#107D920F19000F92
(1691507925.315997) can1 0CF00400#707D912219000F92
(1691507925.330358) can1 18FEF100#FF0000FCFF3D00CF
(1691507925.335174) can1 10FF031C#1059BC0D1A20E564
(1691507925.335726) can1 10FF011C#FBFA311881B25EC1
(1691507925.336306) can1 10FF021C#6016020000000000
(1691507925.336865) can1 0CF00400#707D911919000F92
(1691507925.355945) can1 0CF00400#107D921719000F92
(1691507925.375959) can1 0CF00400#707D912719000F92
(1691507925.395928) can1 0CF00400#207D92D318000F92
(1691507925.415996) can1 0CF00400#707D92E818000F93
(1691507925.430369) can1 18FEF100#FF0000FCFF3D00CF
(1691507925.435995) can1 0CF00400#207D920D19000F92
(1691507925.440474) can1 10FF031C#10B900001B20E564
(1691507925.441025) can1 10FF011C#FBFA311881B25EC1
(1691507925.441603) can1 10FF021C#D097010000000000
(1691507925.470572) can1 0CF00400#007D922419000F92
(1691507925.475981) can1 0CF00400#707D911D19000F92
(1691507925.495964) can1 0CF00400#007D922219000F92
(1691507925.516000) can1 0CF00400#707D912319000F92
(1691507925.530426) can1 18FEF100#FF0000FCFF3D00CF
(1691507925.534547) can1 10FF031C#105987011B20E564
(1691507925.535099) can1 10FF011C#FCFA311881B25EC1
(1691507925.535682) can1 10FF021C#6054000000000000
(1691507925.536257) can1 0CF00400#007D92FE18000F92
(1691507925.555982) can1 0CF00400#007D93C518000F93
(1691507925.576008) can1 0CF00400#607D92F318000F93
(1691507925.595984) can1 0CF00400#207D921219000F92
(1691507925.616011) can1 0CF00400#707D911519000F92
(1691507925.630435) can1 18FEF100#FF0000FCFF3D00CF
(1691507925.633528) can1 10FF031C#10F90D031B20E564
(1691507925.634080) can1 10FF011C#FCFA311882B25EC1
(1691507925.634663) can1 10FF021C#4038000000000000
(1691507925.636040) can1 0CF00400#007D921119000F92
(1691507925.655999) can1 0CF00400#707D911F19000F92
(1691507925.676023) can1 0CF00400#507D912219000F92
(1691507925.696020) can1 0CF00400#007D92CC18000F92
(1691507925.716023) can1 0CF00400#407D92F618000F92
(1691507925.731021) can1 18FEF100#FF0000FCFF3D00CF
(1691507925.734664) can1 10FF031C#109994041B20E564
(1691507925.735216) can1 10FF011C#FDFA311882B25EC1
(1691507925.735791) can1 10FF021C#D097010000000000
(1691507925.764738) can1 0CF00400#607D911A19000F92
(1691507925.765297) can1 0CF00400#407D912F19000F92
(1691507925.776083) can1 0CF00400#107D913619000F91
(1691507925.796006) can1 0CF00400#207D912B19000F91
(1691507925.816005) can1 0CF00400#107D913719000F91
(1691507925.830415) can1 18FEF100#FF0000FCFF3D00CF
(1691507925.834632) can1 10FF031C#10391B061B20E564
(1691507925.835183) can1 10FF011C#FDFA311883B25EC1
(1691507925.835767) can1 10FF021C#B07B010000000000
(1691507925.836330) can1 0CF00400#007D911319000F91
(1691507925.855980) can1 0CF00400#207D92CF18000F92
(1691507925.876056) can1 0CF00400#707D91FB18000F92
(1691507925.896323) can1 0CF00400#507D910D19000F92
(1691507925.916014) can1 0CF00400#507D910519000F92
(1691507925.930442) can1 18FEF100#FF0000FCFF3D00CF
(1691507925.934562) can1 10FF031C#10D9A1071B20E564
(1691507925.935114) can1 10FF011C#FDFA311882B25EC1
(1691507925.935698) can1 10FF021C#00E1000000000000
(1691507925.964649) can1 0CF00400#707D91F618000F92
(1691507925.965219) can1 0CF00400#007D92FF18000F92
(1691507925.976080) can1 0CF00400#107D92F918000F92
(1691507925.996032) can1 0CF00400#507D92AE18000F93
(1691507926.016346) can1 0CF00400#207D93C718000F93
(1691507926.030497) can1 18FEF100#FF0000FCFF3D00CF
(1691507926.034505) can1 10FF031C#107928091B20E564
(1691507926.035054) can1 10FF011C#FEFA311883B25EC1
(1691507926.035637) can1 10FF021C#10EF000000000000
(1691507926.036202) can1 0CF00400#507D92ED18000F93
(1691507926.056072) can1 0CF00400#307D920419000F92
(1691507926.076114) can1 0CF00400#207D920819000F92
(1691507926.096062) can1 0CF00400#307D920519000F92
(1691507926.116113) can1 0CF00400#207D921319000F92
(1691507926.130510) can1 18FEF100#FF0000FCFF3D00CF
(1691507926.133192) can1 10FF031C#1019AF0A1B20E564
(1691507926.133743) can1 10FF011C#FEFA311883B25EC1
(1691507926.134336) can1 10FF021C#20FD000000000000
(1691507926.136096) can1 0CF00400#107D92FB18000F92
(1691507926.156058) can1 0CF00400#007D93D318000F93
(1691507926.176102) can1 0CF00400#307D921019000F92
(1691507926.196074) can1 0CF00400#107D921519000F92
(1691507926.216091) can1 0CF00400#707D912C19000F92
(1691507926.230520) can1 18FEF100#FF0000FCFF3D00CF
(1691507926.234523) can1 10FF031C#10B9350C1B20E564
(1691507926.235075) can1 10FF011C#FEFA311883B25EC1
(1691507926.235660) can1 10FF021C#B07B010000000000
(1691507926.264602) can1 0CF00400#607D912719000F92
(1691507926.265159) can1 0CF00400#707D912B19000F92
(1691507926.276133) can1 0CF00400#507D913619000F92
(1691507926.296319) can1 0CF00400#107D92D818000F92
(1691507926.316120) can1 0CF00400#607D92F018000F93
(1691507926.330491) can1 18FEF100#FF0000FCFF3D00CF
(1691507926.334752) can1 10FF031C#1059BC0D1B20E564
(1691507926.335300) can1 10FF011C#FEFA311884B25EC1
(1691507926.335875) can1 10FF021C#F0D2000000000000
(1691507926.336443) can1 0CF00400#107D921419000F92
(1691507926.356074) can1 0CF00400#707D911D19000F92
(1691507926.376121) can1 0CF00400#607D911519000F92
(1691507926.396094) can1 0CF00400#607D912319000F92
(1691507926.416131) can1 0CF00400#507D912519000F92
(1691507926.430509) can1 18FEF100#FF0000FCFF3D00CF
(1691507926.436144) can1 0CF00400#607D91FB18000F92
(1691507926.440183) can1 10FF031C#10B900001C20E564
(1691507926.440733) can1 10FF011C#FFFA311884B25EC1
(1691507926.441315) can1 10FF021C#10EF000000000000
(1691507926.470281) can1 0CF00400#607D92CC18000F93
(1691507926.476126) can1 0CF00400#307D92EE18000F92
(1691507926.496132) can1 0CF00400#007D920819000F92
(1691507926.516124) can1 0CF00400#707D910A19000F92
(1691507926.530530) can1 18FEF100#FF0000FCFF3D00CF
(1691507926.534569) can1 10FF031C#105987011C20E564
(1691507926.535114) can1 10FF011C#FFFA311884B25EC1
(1691507926.535694) can1 10FF021C#8051010000000000
(1691507926.536269) can1 0CF00400#107D920019000F92
(1691507926.556134) can1 0CF00400#007D920D19000F92
(1691507926.576167) can1 0CF00400#507D911E19000F92
(1691507926.596135) can1 0CF00400#007D92CA18000F92
(1691507926.616167) can1 0CF00400#307D92F718000F92
(1691507926.630538) can1 18FEF100#FF0000FCFF3D00CF
(1691507926.633285) can1 10FF031C#10F90D031C20E564
(1691507926.633833) can1 10FF011C#FFFA311885B25EC1
(1691507926.634413) can1 10FF021C#5027010000000000
(1691507926.636157) can1 0CF00400#507D911C19000F92
(1691507926.656131) can1 0CF00400#107D913719000F91
(1691507926.676174) can1 0CF00400#607D903919000F91
(1691507926.696143) can1 0CF00400#707D903319000F91
(1691507926.716175) can1 0CF00400#507D904A19000F91
(1691507926.731148) can1 18FEF100#FF0000FCFF3D00CF
(1691507926.734392) can1 10FF031C#109994041C20E564
(1691507926.734943) can1 10FF011C#00FB311884B25EC1
(1691507926.735528) can1 10FF021C#20DE010000000000
(1691507926.764483) can1 0CF00400#407D901E19000F91
(1691507926.765046) can1 0CF00400#407D91E818000F92
(1691507926.776199) can1 0CF00400#207D910D19000F91
(1691507926.796150) can1 0CF00400#007D910F19000F91
(1691507926.816211) can1 0CF00400#107D910419000F91
(1691507926.830603) can1 18FEF100#FF0000FCFF3D00CF
(1691507926.834544) can1 10FF031C#10391B061C20E564
(1691507926.835095) can1 10FF011C#00FB311885B25EC1
(1691507926.835680) can1 10FF021C#300B010000000000
(1691507926.836251) can1 0CF00400#307D91F718000F91
(1691507926.856153) can1 0CF00400#407D91EE18000F92
(1691507926.876198) can1 0CF00400#507D91DF18000F92
(1691507926.896364) can1 0CF00400#307D929418000F92
(1691507926.916222) can1 0CF00400#607D92B318000F93
(1691507926.930583) can1 18FEF100#FF0000FCFF3D00CF
(1691507926.934440) can1 10FF031C#10D9A1071C20E564
(1691507926.934991) can1 10FF011C#00FB311885B25EC1
(1691507926.935575) can1 10FF021C#302A000000000000
(1691507926.964530) can1 0CF00400#307D92D318000F92
(1691507926.965099) can1 0CF00400#007D92F018000F92
(1691507926.976201) can1 0CF00400#707D91EE18000F92
(1691507926.996153) can1 0CF00400#007D92FA18000F92
(1691507927.016197) can1 0CF00400#707D910C19000F92
(1691507927.030589) can1 18FEF100#FF0000FCFF3D00CF
(1691507927.034481) can1 10FF031C#107928091C20E564
(1691507927.035028) can1 10FF011C#01FB311885B25EC1
(1691507927.035610) can1 10FF021C#4019010000000000
(1691507927.036182) can1 0CF00400#607D91EE18000F92
(1691507927.056173) can1 0CF00400#707D92B918000F93
(1691507927.076250) can1 0CF00400#307D92F918000F92
(1691507927.096208) can1 0CF00400#107D92F718000F92
(1691507927.116241) can1 0CF00400#207D920019000F92
(1691507927.130648) can1 18FEF100#FF0000FCFF3D00CF
(1691507927.134042) can1 10FF031C#1019AF0A1C20E564
(1691507927.134594) can1 10FF011C#00FB311885B25EC1
(1691507927.135173) can1 10FF021C#A02F030000000000
(1691507927.164126) can1 0CF00400#207D92F718000F92
(1691507927.164685) can1 0CF00400#407D920119000F92
(1691507927.176239) can1 0CF00400#207D921219000F92
(1691507927.196219) can1 0CF00400#507D92B818000F93
(1691507927.216228) can1 0CF00400#207D93D818000F93
(1691507927.230648) can1 18FEF100#FF0000FCFF3D00CF
(1691507927.234625) can1 10FF031C#10B9350C1C20E564
(1691507927.235177) can1 10FF011C#01FB311885B25EC1
(1691507927.235752) can1 10FF021C#F0B3010000000000
(1691507927.236320) can1 0CF00400#207D920D19000F92
(1691507927.256212) can1 0CF00400#707D912B19000F92
(1691507927.276277) can1 0CF00400#307D913619000F91
(1691507927.296312) can1 0CF00400#107D914819000F91
(1691507927.316338) can1 0CF00400#607D905119000F91
(1691507927.330708) can1 18FEF100#FF0000FCFF3D00CF
(1691507927.334485) can1 10FF031C#1059BC0D1C20E564
(1691507927.335036) can1 10FF011C#01FB311886B25EC1
(1691507927.335616) can1 10FF021C#8051010000000000
(1691507927.364563) can1 0CF00400#407D902919000F91
(1691507927.365121) can1 0CF00400#407D91EE18000F91
(1691507927.376266) can1 0CF00400#307D910819000F91
(1691507927.396252) can1 0CF00400#107D911519000F91
(1691507927.416234) can1 0CF00400#007D910A19000F91
(1691507927.430715) can1 18FEF100#FF0000FCFF3D00CF
(1691507927.436267) can1 0CF00400#307D91EF18000F91
(1691507927.440756) can1 10FF031C#10B900001D20E564
(1691507927.441308) can1 10FF011C#01FB311886B25EC1
(1691507927.441891) can1 10FF021C#4038000000000000
(1691507927.456258) can1 0CF00400#507D91F118000F92
(1691507927.476284) can1 0CF00400#507D91F318000F92
(1691507927.496227) can1 0CF00400#307D929518000F92
(1691507927.516253) can1 0CF00400#007D93BC18000F93
(1691507927.530719) can1 18FEF100#FF0000FCFF3D00CF
(1691507927.534746) can1 10FF031C#105987011D20E564
(1691507927.535290) can1 10FF011C#02FB311886B25EC1
(1691507927.535872) can1 10FF021C#4019010000000000
(1691507927.564836) can1 0CF00400#307D92E318000F92
(1691507927.565403) can1 0CF00400#307D92F618000F92
(1691507927.576289) can1 0CF00400#107D920A19000F92
(1691507927.596272) can1 0CF00400#207D920919000F92
(1691507927.616251) can1 0CF00400#107D921919000F92
(1691507927.630678) can1 18FEF100#FF0000FCFF3D00CF
(1691507927.634740) can1 10FF031C#10F90D031D20E564
(1691507927.635287) can1 10FF011C#02FB311886B25EC1
(1691507927.635875) can1 10FF021C#905F010000000000
(1691507927.636452) can1 0CF00400#107D92FC18000F92
(1691507927.656258) can1 0CF00400#107D93C718000F93
(1691507927.676316) can1 0CF00400#507D92FD18000F93
(1691507927.696296) can1 0CF00400#207D920919000F92
(1691507927.716301) can1 0CF00400#107D921019000F92
(1691507927.731272) can1 18FEF100#FF0000FCFF3D00CF
(1691507927.734793) can1 10FF031C#109994041D20E564
(1691507927.735343) can1 10FF011C#03FB311887B25EC1
(1691507927.735926) can1 10FF021C#907E000000000000
(1691507927.764874) can1 0CF00400#107D921719000F92
(1691507927.765432) can1 0CF00400#007D922219000F92
(1691507927.776322) can1 0CF00400#707D912419000F92
(1691507927.796302) can1 0CF00400#307D92D718000F92
(1691507927.816254) can1 0CF00400#607D92EA18000F93
(1691507927.830710) can1 18FEF100#FF0000FCFF3D00CF
(1691507927.835258) can1 10FF031C#10391B061D20E564
(1691507927.835810) can1 10FF011C#03FB311887B25EC1
(1691507927.836394) can1 10FF021C#8070000000000000
(1691507927.836958) can1 0CF00400#207D921319000F92
(1691507927.856318) can1 0CF00400#707D912419000F92
(1691507927.876331) can1 0CF00400#707D911519000F92
(1691507927.896396) can1 0CF00400#107D921519000F92
(1691507927.916336) can1 0CF00400#007D922119000F92
(1691507927.930720) can1 18FEF100#FF0000FCFF3D00CF
(1691507927.934752) can1 10FF031C#10D9A1071D20E564
(1691507927.935309) can1 10FF011C#03FB311888B25EC1
(1691507927.935894) can1 10FF021C#10EF000000000000
(1691507927.964842) can1 0CF00400#007D92F318000F92
(1691507927.965415) can1 0CF00400#107D93C118000F93
(1691507927.976364) can1 0CF00400#507D92FC18000F93
(1691507927.996312) can1 0CF00400#207D920319000F92
(1691507928.016339) can1 0CF00400#107D921A19000F92
(1691507928.030739) can1 18FEF100#FF0000FCFF3D00CF
(1691507928.034577) can1 10FF031C#107928091D20E564
(1691507928.035121) can1 10FF011C#04FB311888B25EC1
(1691507928.035717) can1 10FF021C#300B010000000000
(1691507928.036344) can1 0CF00400#707D911B19000F92
(1691507928.056341) can1 0CF00400#707D912319000F92
(1691507928.076385) can1 0CF00400#307D914219000F91
(1691507928.096338) can1 0CF00400#507D91E718000F92
(1691507928.116497) can1 0CF00400#107D920419000F92
(1691507928.130812) can1 18FEF100#FF0000FCFF3D00CF
(1691507928.134792) can1 10FF031C#1019AF0A1D20E564
(1691507928.135338) can1 10FF011C#04FB311888B25EC1
(1691507928.135925) can1 10FF021C#A08C000000000000
(1691507928.164871) can1 0CF00400#407D912719000F91
(1691507928.165426) can1 0CF00400#007D913719000F91
(1691507928.176382) can1 0CF00400#007D912819000F91
(1691507928.196351) can1 0CF00400#707D902A19000F91
(1691507928.216720) can1 0CF00400#707D902F19000F91
(1691507928.230768) can1 18FEF100#FF0000FCFF3D00CF
(1691507928.234760) can1 10FF031C#10B9350C1D20E564
(1691507928.235309) can1 10FF011C#04FB311889B25EC1
(1691507928.235900) can1 10FF021C#20FD000000000000
(1691507928.236468) can1 0CF00400#707D900719000F91
(1691507928.256326) can1 0CF00400#707D91D118000F92
(1691507928.276431) can1 0CF00400#407D91F618000F91
(1691507928.296404) can1 0CF00400#307D910019000F91
(1691507928.316403) can1 0CF00400#307D91FA18000F91
(1691507928.330850) can1 18FEF100#FF0000FCFF3D00CF
(1691507928.334829) can1 10FF031C#1059BC0D1D20E564
(1691507928.335377) can1 10FF011C#04FB311889B25EC1
(1691507928.335961) can1 10FF021C#C089010000000000
(1691507928.364925) can1 0CF00400#507D91ED18000F92
(1691507928.365469) can1 0CF00400#507D91F318000F92
(1691507928.376414) can1 0CF00400#507D91F018000F92
(1691507928.396394) can1 0CF00400#307D929818000F92
(1691507928.416384) can1 0CF00400#607D92CE18000F93
(1691507928.430793) can1 18FEF100#FF0000FCFF3D00CF
(1691507928.436433) can1 0CF00400#107D92E818000F92
(1691507928.443196) can1 10FF031C#10B900001E20E564
(1691507928.443743) can1 10FF011C#05FB311889B25EC1
(1691507928.444319) can1 10FF021C#B09A000000000000
(1691507928.456421) can1 0CF00400#007D92FC18000F92
(1691507928.476411) can1 0CF00400#607D911119000F92
(1691507928.496391) can1 0CF00400#607D910F19000F92
(1691507928.516391) can1 0CF00400#507D912B19000F92
(1691507928.530870) can1 18FEF100#FF0000FCFF3D00CF
(1691507928.533727) can1 10FF031C#105987011E20E564
(1691507928.534272) can1 10FF011C#05FB31188AB25EC1
(1691507928.534854) can1 10FF021C#E0C4000000000000
(1691507928.536382) can1 0CF00400#307D910919000F91
(1691507928.556402) can1 0CF00400#407D92D218000F93
(1691507928.576440) can1 0CF00400#107D920719000F92
(1691507928.596398) can1 0CF00400#607D911619000F92
(1691507928.616403) can1 0CF00400#607D910D19000F92
(1691507928.630882) can1 18FEF100#FF0000FCFF3D00CF
(1691507928.634786) can1 10FF031C#10F90D031E20E564
(1691507928.635316) can1 10FF011C#05FB31188AB25EC1
(1691507928.635899) can1 10FF021C#907E000000000000
(1691507928.664860) can1 0CF00400#007D920319000F92
(1691507928.665419) can1 0CF00400#007D920A19000F92
(1691507928.676460) can1 0CF00400#007D920519000F92
(1691507928.696416) can1 0CF00400#507D92AD18000F93
(1691507928.716433) can1 0CF00400#207D93CA18000F93
(1691507928.731409) can1 18FEF100#FF0000FCFF3D00CF
(1691507928.735350) can1 10FF031C#109994041E20E564
(1691507928.735897) can1 10FF011C#06FB31188AB25EC1
(1691507928.736480) can1 10FF021C#4019010000000000
(1691507928.737048) can1 0CF00400#607D92F018000F93
(1691507928.756441) can1 0CF00400#307D920419000F92
(1691507928.776499) can1 0CF00400#307D920719000F92
(1691507928.796458) can1 0CF00400#307D921219000F92
(1691507928.816479) can1 0CF00400#007D922A19000F92
(1691507928.830902) can1 18FEF100#FF0000FCFF3D00CF
(1691507928.834812) can1 10FF031C#10391B061E20E564
(1691507928.835359) can1 10FF011C#06FB31188BB25EC1
(1691507928.835951) can1 10FF021C#20FD000000000000
(1691507928.864884) can1 0CF00400#507D911619000F92
(1691507928.865448) can1 0CF00400#207D92F918000F92
(1691507928.876465) can1 0CF00400#307D913519000F91
(1691507928.896546) can1 0CF00400#607D904819000F91
(1691507928.916464) can1 0CF00400#307D905419000F90
(1691507928.930876) can1 18FEF100#FF0000FCFF3D00CF
(1691507928.934711) can1 10FF031C#10D9A1071E20E564
(1691507928.935260) can1 10FF011C#06FB31188BB25EC1
(1691507928.935839) can1 10FF021C#5027010000000000
(1691507928.936948) can1 0CF00400#307D904619000F90
(1691507928.956464) can1 0CF00400#407D903E19000F90
(1691507928.976529) can1 0CF00400#207D903F19000F90
(1691507928.996473) can1 0CF00400#007D91DB18000F91
(1691507929.016488) can1 0CF00400#507D91F818000F92
(1691507929.030877) can1 18FEF100#FF0000FCFF3D00CF
(1691507929.033536) can1 10FF031C#107928091E20E564
(1691507929.034089) can1 10FF011C#06FB31188BB25EC1
(1691507929.034675) can1 10FF021C#905F010000000000
(1691507929.036478) can1 0CF00400#207D910C19000F91
(1691507929.056462) can1 0CF00400#207D910B19000F91
(1691507929.076531) can1 0CF00400#307D91FF18000F91
(1691507929.096499) can1 0CF00400#507D910119000F92
(1691507929.116497) can1 0CF00400#507D91FF18000F92
(1691507929.130891) can1 18FEF100#FF0000FCFF3D00CF
(1691507929.134665) can1 10FF031C#101AAF0A1E20E564
(1691507929.135211) can1 10FF011C#07FB31188BB25EC1
(1691507929.135790) can1 10FF021C#5027010000000000
(1691507929.164755) can1 0CF00400#007D92C918000F92
(1691507929.165329) can1 0CF00400#107D93A818000F93
(1691507929.176504) can1 0CF00400#407D92D618000F93
(1691507929.196500) can1 0CF00400#307D92E218000F92
(1691507929.216488) can1 0CF00400#107D92EF18000F92
(1691507929.230958) can1 18FEF100#FF0000FCFF3D00CF
(1691507929.234742) can1 10FF031C#10BA350C1E20E564
(1691507929.235289) can1 10FF011C#07FB31188CB25EC1
(1691507929.235874) can1 10FF021C#C089010000000000
(1691507929.236528) can1 0CF00400#207D92EA18000F92
(1691507929.256529) can1 0CF00400#207D92F918000F92
(1691507929.276579) can1 0CF00400#007D920D19000F92
(1691507929.296552) can1 0CF00400#307D92BD18000F92
(1691507929.316559) can1 0CF00400#607D92F018000F93
(1691507929.330980) can1 18FEF100#FF0000FCFF3D00CF
(1691507929.334818) can1 10FF031C#105ABC0D1E20E564
(1691507929.335365) can1 10FF011C#08FB31188CB25EC1
(1691507929.335949) can1 10FF021C#B05C020000000000
(1691507929.364900) can1 0CF00400#007D921719000F92
(1691507929.365454) can1 0CF00400#607D912919000F92
(1691507929.376544) can1 0CF00400#507D912719000F92
(1691507929.396515) can1 0CF00400#607D912319000F92
(1691507929.416479) can1 0CF00400#607D913519000F92
(1691507929.430928) can1 18FEF100#FF0000FCFF3D00CF
(1691507929.436543) can1 0CF00400#607D910319000F92
(1691507929.440534) can1 10FF031C#10BA00001F20E564
(1691507929.441083) can1 10FF011C#08FB31188CB25EC1
(1691507929.441661) can1 10FF021C#5046000000000000
(1691507929.456548) can1 0CF00400#107D93C018000F93
(1691507929.476545) can1 0CF00400#707D92ED18000F93
(1691507929.496546) can1 0CF00400#507D92F518000F93
(1691507929.516539) can1 0CF00400#607D92F118000F93
(1691507929.530998) can1 18FEF100#FF0000FCFF3D00CF
(1691507929.533420) can1 10FF031C#105A87011F20E564
(1691507929.533962) can1 10FF011C#09FB31188CB25EC1
(1691507929.534536) can1 10FF021C#F0D2000000000000
(1691507929.536556) can1 0CF00400#707D92F818000F93
(1691507929.556555) can1 0CF00400#707D92FE18000F93
(1691507929.576594) can1 0CF00400#607D920C19000F93
(1691507929.596549) can1 0CF00400#707D92D618000F93
(1691507929.616598) can1 0CF00400#107D93F818000F93
(1691507929.631562) can1 18FEF100#FF0000FCFF3D00CF
(1691507929.634811) can1 10FF031C#10FA0D031F20E564
(1691507929.635359) can1 10FF011C#09FB31188DB25EC1
(1691507929.635943) can1 10FF021C#4038000000000000
(1691507929.664883) can1 0CF00400#307D922319000F92
(1691507929.665437) can1 0CF00400#407D914919000F92
(1691507929.676596) can1 0CF00400#707D905119000F91
(1691507929.696585) can1 0CF00400#407D905F19000F91
(1691507929.716600) can1 0CF00400#107D906D19000F90
(1691507929.731577) can1 18FEF100#FF0000FCFF3D00CF
(1691507929.734649) can1 10FF031C#109A94041F20E564
(1691507929.735218) can1 10FF011C#09FB31188DB25EC1
(1691507929.735775) can1 10FF021C#B09A000000000000
(1691507929.736563) can1 0CF00400#707D8F3B19000F90
(1691507929.756546) can1 0CF00400#607D901519000F91
(1691507929.776650) can1 0CF00400#007D903F19000F90
(1691507929.796584) can1 0CF00400#007D903519000F90
(1691507929.816634) can1 0CF00400#207D902C19000F90
(1691507929.830994) can1 18FEF100#FF0000FCFF3D00CF
(1691507929.834707) can1 10FF031C#103A1B061F20E564
(1691507929.835257) can1 10FF011C#09FB31188EB25EC1
(1691507929.835842) can1 10FF021C#4019010000000000
(1691507929.864784) can1 0CF00400#507D901219000F91
(1691507929.865355) can1 0CF00400#007D910419000F91
(1691507929.876630) can1 0CF00400#107D91ED18000F91
(1691507929.897083) can1 0CF00400#107D929318000F92
(1691507929.916620) can1 0CF00400#507D92BE18000F93
(1691507929.930992) can1 18FEF100#FF0000FCFF3D00CF
(1691507929.934705) can1 10FF031C#10DAA1071F20E564
(1691507929.935253) can1 10FF011C#0AFB31188EB25EC1
(1691507929.935833) can1 10FF021C#5027010000000000
(1691507929.937116) can1 0CF00400#107D92DA18000F92
(1691507929.956568) can1 0CF00400#007D92E618000F92
(1691507929.976653) can1 0CF00400#007D92E518000F92
(1691507929.996622) can1 0CF00400#007D92F318000F92
(1691507930.016642) can1 0CF00400#007D920319000F92
(1691507930.031007) can1 18FEF100#FF0000FCFF3D00CF
(1691507930.033319) can1 10FF031C#107A28091F20E564
(1691507930.033863) can1 10FF011C#0AFB31188EB25EC1
(1691507930.034444) can1 10FF021C#6054000000000000
(1691507930.036616) can1 0CF00400#707D91E118000F92
(1691507930.056580) can1 0CF00400#607D92C218000F93
(1691507930.076688) can1 0CF00400#207D92F418000F92
(1691507930.096626) can1 0CF00400#707D911519000F92
(1691507930.116676) can1 0CF00400#507D911219000F92
(1691507930.130994) can1 18FEF100#FF0000FCFF3D00CF
(1691507930.134476) can1 10FF031C#101AAF0A1F20E564
(1691507930.135032) can1 10FF011C#0AFB31188FB25EC1
(1691507930.135623) can1 10FF021C#B09A000000000000
(1691507930.164587) can1 0CF00400#007D920819000F92
(1691507930.165132) can1 0CF00400#707D911519000F92
(1691507930.176689) can1 0CF00400#507D911419000F92
(1691507930.196653) can1 0CF00400#307D92B218000F92
(1691507930.216654) can1 0CF00400#007D93DD18000F93
(1691507930.231010) can1 18FEF100#FF0000FCFF3D00CF
(1691507930.234634) can1 10FF031C#10BA350C1F20E564
(1691507930.235187) can1 10FF011C#0AFB31188FB25EC1
(1691507930.235762) can1 10FF021C#D097010000000000
(1691507930.236646) can1 0CF00400#507D92F318000F93
(1691507930.256623) can1 0CF00400#507D92FF18000F93
(1691507930.276700) can1 0CF00400#507D920419000F93
(1691507930.296696) can1 0CF00400#707D92FF18000F93
(1691507930.316711) can1 0CF00400#707D922019000F93
(1691507930.331007) can1 18FEF100#FF0000FCFF3D00CF
(1691507930.334536) can1 10FF031C#105ABC0D1F20E564
(1691507930.335086) can1 10FF011C#0BFB31188FB25EC1
(1691507930.335666) can1 10FF021C#7043010000000000
(1691507930.364608) can1 0CF00400#407D92FF18000F93
(1691507930.365177) can1 0CF00400#207D93E418000F93
(1691507930.376699) can1 0CF00400#407D922219000F93
(1691507930.396674) can1 0CF00400#607D914619000F92
(1691507930.416685) can1 0CF00400#107D915319000F91
(1691507930.431019) can1 18FEF100#FF0000FCFF3D00CF
(1691507930.436667) can1 0CF00400#607D905E19000F91
(1691507930.440658) can1 10FF031C#10BA00002020E564
(1691507930.441213) can1 10FF011C#0BFB31188FB25EC1
(1691507930.441798) can1 10FF021C#40FA010000000000
(1691507930.456677) can1 0CF00400#207D906119000F90
(1691507930.476713) can1 0CF00400#007D905819000F90
(1691507930.496712) can1 0CF00400#307D901019000F90
