(1691508123.990824) can1 0CF00400#607D8FD818000F90
(1691508124.010821) can1 0CF00400#407D8FE918000F8F
(1691508124.030911) can1 0CF00400#207D8FF918000F8F
(1691508124.050808) can1 0CF00400#107D8F0E19000F8F
(1691508124.070840) can1 0CF00400#007D8F1919000F8F
(1691508124.071728) can1 10FF031C#1052BC0D7731E564
(1691508124.072283) can1 10FF011C#F6FA311804B25EC1
(1691508124.072849) can1 10FF021C#C0A80000084C0000
(1691508124.101850) can1 18FEF100#FF0000FCFF3D00CF
(1691508124.102414) can1 0CF00400#007D8F1019000F8F
(1691508124.110845) can1 0CF00400#207D8FE718000F8F
(1691508124.130952) can1 0CF00400#007D90D118000F90
(1691508124.150834) can1 0CF00400#507D8FE018000F90
(1691508124.170884) can1 0CF00400#307D8FFF18000F8F
(1691508124.178576) can1 10FF031C#10B200007831E564
(1691508124.179128) can1 10FF011C#F5FA311805B25EC1
(1691508124.179699) can1 10FF021C#30CD0200084C0000
(1691508124.185359) can1 18FEF100#FF0000FCFF3D00CF
(1691508124.190816) can1 0CF00400#107D8F1219000F8F
(1691508124.210818) can1 0CF00400#707D8E2A19000F8F
(1691508124.231417) can1 0CF00400#707D8E1D19000F8F
(1691508124.250832) can1 0CF00400#007D8F0A19000F8F
(1691508124.270893) can1 0CF00400#507D8FC618000F90
(1691508124.272742) can1 10FF031C#105287017831E564
(1691508124.273301) can1 10FF011C#F6FA311805B25EC1
(1691508124.273871) can1 10FF021C#C06A0200084C0000
(1691508124.302865) can1 18FEF100#FF0000FCFF3D00CF
(1691508124.303438) can1 0CF00400#707D8FE418000F90
(1691508124.310861) can1 0CF00400#407D8FF418000F8F
(1691508124.331013) can1 0CF00400#207D8F0319000F8F
(1691508124.351445) can1 0CF00400#007D8F2919000F8F
(1691508124.370915) can1 0CF00400#607D8E1E19000F8F
(1691508124.371576) can1 10FF031C#10F20D037831E564
(1691508124.372127) can1 10FF011C#F6FA311804B25EC1
(1691508124.372701) can1 10FF021C#20DE0100084C0000
(1691508124.384767) can1 18FEF100#FF0000FCFF3D00CF
(1691508124.390915) can1 0CF00400#007D8F2019000F8F
(1691508124.410867) can1 0CF00400#107D8FF518000F8F
(1691508124.430958) can1 0CF00400#007D90D018000F90
(1691508124.450887) can1 0CF00400#607D8FE718000F90
(1691508124.469673) can1 10FF031C#109294047831E564
(1691508124.470226) can1 10FF011C#F5FA311805B25EC1
(1691508124.470797) can1 10FF021C#D0970100084C0000
(1691508124.471373) can1 0CF00400#307D8FF418000F8F
(1691508124.484724) can1 18FEF100#FF0000FCFF3D00CF
(1691508124.490892) can1 0CF00400#207D8FFC18000F8F
(1691508124.510888) can1 0CF00400#107D8F1319000F8F
(1691508124.530967) can1 0CF00400#107D8F1119000F8F
(1691508124.550922) can1 0CF00400#207D8FFE18000F8F
(1691508124.570962) can1 0CF00400#507D8FC918000F90
(1691508124.571557) can1 10FF031C#10321B067831E564
(1691508124.572110) can1 10FF011C#F6FA311805B25EC1
(1691508124.572679) can1 10FF021C#A08C0000084C0000
(1691508124.601676) can1 18FEF100#FF0000FCFF3D00CF
(1691508124.602242) can1 0CF00400#707D8FDA18000F90
(1691508124.610886) can1 0CF00400#507D8FE618000F90
(1691508124.631009) can1 0CF00400#307D8FFE18000F8F
(1691508124.650908) can1 0CF00400#207D8F1919000F8F
(1691508124.670942) can1 0CF00400#107D8F1319000F8F
(1691508124.674223) can1 10FF031C#10D2A1077831E564
(1691508124.674776) can1 10FF011C#F6FA311804B25EC1
(1691508124.675356) can1 10FF021C#00E10000084C0000
(1691508124.684768) can1 18FEF100#FF0000FCFF3D00CF
(1691508124.690926) can1 0CF00400#207D8F1219000F8F
(1691508124.710932) can1 0CF00400#207D8FF018000F8F
(1691508124.731435) can1 0CF00400#007D90D618000F90
(1691508124.750949) can1 0CF00400#607D8FEC18000F90
(1691508124.770998) can1 0CF00400#307D8FFA18000F8F
(1691508124.771544) can1 10FF011C#F6FA311804B25EC1
(1691508124.772127) can1 10FF021C#E0860200084C0000
(1691508124.772669) can1 10FF031C#107228097831E564
(1691508124.801445) can1 18FEF100#FF0000FCFF3D00CF
(1691508124.802009) can1 0CF00400#207D8F1919000F8F
(1691508124.810914) can1 0CF00400#707D8E2C19000F8F
(1691508124.831013) can1 0CF00400#107D8F2219000F8F
(1691508124.850933) can1 0CF00400#107D8F1A19000F8F
(1691508124.870998) can1 0CF00400#507D8FD318000F90
(1691508124.871547) can1 10FF011C#F6FA311805B25EC1
(1691508124.872119) can1 10FF021C#F0750300084C0000
(1691508124.872669) can1 10FF031C#1012AF0A7831E564
(1691508124.884795) can1 18FEF100#FF0000FCFF3D00CF
(1691508124.891012) can1 0CF00400#007D90E618000F90
(1691508124.910942) can1 0CF00400#607D8FF718000F90
(1691508124.931028) can1 0CF00400#507D8FFF18000F90
(1691508124.950949) can1 0CF00400#407D8F2019000F90
(1691508124.969671) can1 10FF031C#10B2350C7831E564
(1691508124.970219) can1 10FF011C#F6FA311805B25EC1
(1691508124.970788) can1 10FF021C#10B10200084C0000
(1691508124.971354) can1 0CF00400#107D8F2C19000F8F
(1691508124.984848) can1 18FEF100#FF0000FCFF3D00CF
(1691508124.990976) can1 0CF00400#207D8F1F19000F8F
(1691508125.010948) can1 0CF00400#407D8FF418000F90
(1691508125.031043) can1 0CF00400#207D90DD18000F90
(1691508125.050958) can1 0CF00400#007D90E718000F90
(1691508125.070977) can1 0CF00400#507D8F0B19000F90
(1691508125.071526) can1 10FF011C#F5FA311804B25EC1
(1691508125.072109) can1 10FF021C#20FD0000084C0000
(1691508125.072663) can1 10FF031C#1052BC0D7831E564
(1691508125.101440) can1 18FEF100#FF0000FCFF3D00CF
(1691508125.102003) can1 0CF00400#207D8F2119000F8F
(1691508125.110979) can1 0CF00400#107D8F3019000F8F
(1691508125.131061) can1 0CF00400#107D8F2C19000F8F
(1691508125.150974) can1 0CF00400#007D8F2519000F8F
(1691508125.171012) can1 0CF00400#507D8FDA18000F90
(1691508125.177402) can1 10FF031C#10B200007931E564
(1691508125.177950) can1 10FF011C#F5FA311804B25EC1
(1691508125.178513) can1 10FF021C#50E90200084C0000
(1691508125.185457) can1 18FEF100#FF0000FCFF3D00CF
(1691508125.190961) can1 0CF00400#607D8FF518000F90
(1691508125.210964) can1 0CF00400#407D8F0D19000F8F
(1691508125.231559) can1 0CF00400#207D8F2019000F8F
(1691508125.250946) can1 0CF00400#607D8E4419000F8F
(1691508125.271035) can1 0CF00400#407D8E4419000F8E
(1691508125.273227) can1 10FF031C#105287017931E564
(1691508125.273769) can1 10FF011C#F5FA311804B25EC1
(1691508125.274357) can1 10FF021C#50270100084C0000
(1691508125.303353) can1 18FEF100#FF0000FCFF3D00CF
(1691508125.303918) can1 0CF00400#407D8E3E19000F8F
(1691508125.310975) can1 0CF00400#607D8E0619000F8F
(1691508125.331179) can1 0CF00400#407D8FEA18000F90
(1691508125.351463) can1 0CF00400#207D8FEC18000F8F
(1691508125.371064) can1 0CF00400#107D8FF118000F8F
(1691508125.371612) can1 10FF011C#F5FA311803B25EC1
(1691508125.372179) can1 10FF021C#60160200084C0000
(1691508125.372736) can1 10FF031C#10F20D037931E564
(1691508125.384868) can1 18FEF100#FF0000FCFF3D00CF
(1691508125.391056) can1 0CF00400#007D8F0719000F8F
(1691508125.410992) can1 0CF00400#607D8E1D19000F8F
(1691508125.431086) can1 0CF00400#607D8E0E19000F8F
(1691508125.451034) can1 0CF00400#707D8E0219000F8F
(1691508125.470075) can1 10FF031C#109294047931E564
(1691508125.470623) can1 10FF011C#F5FA311804B25EC1
(1691508125.471187) can1 10FF021C#F0940200084C0000
(1691508125.471759) can1 0CF00400#207D8FCE18000F8F
(1691508125.484898) can1 18FEF100#FF0000FCFF3D00CF
(1691508125.490983) can1 0CF00400#307D8FD918000F8F
(1691508125.511055) can1 0CF00400#207D8FE518000F8F
(1691508125.531122) can1 0CF00400#007D8FF718000F8F
(1691508125.550985) can1 0CF00400#707D8E0E19000F8F
(1691508125.571026) can1 0CF00400#607D8E0C19000F8F
(1691508125.571578) can1 10FF011C#F6FA311803B25EC1
(1691508125.572154) can1 10FF021C#20DE0100084C0000
(1691508125.572716) can1 10FF031C#10321B067931E564
(1691508125.601580) can1 18FEF100#FF0000FCFF3D00CF
(1691508125.602139) can1 0CF00400#707D8E0719000F8F
(1691508125.611013) can1 0CF00400#107D8FD418000F8F
(1691508125.631151) can1 0CF00400#107D90BB18000F90
(1691508125.651045) can1 0CF00400#507D8FDA18000F90
(1691508125.671074) can1 0CF00400#307D8FDB18000F8F
(1691508125.671622) can1 10FF011C#F6FA311804B25EC1
(1691508125.672190) can1 10FF021C#60160200084C0000
(1691508125.672738) can1 10FF031C#10D2A1077931E564
(1691508125.684953) can1 18FEF100#FF0000FCFF3D00CF
(1691508125.691083) can1 0CF00400#207D8FFD18000F8F
(1691508125.711040) can1 0CF00400#707D8E1E19000F8F
(1691508125.731605) can1 0CF00400#707D8E1A19000F8F
(1691508125.751085) can1 0CF00400#707D8E1A19000F8F
(1691508125.771150) can1 0CF00400#307D8FD918000F8F
(1691508125.771694) can1 10FF011C#F5FA311804B25EC1
(1691508125.772264) can1 10FF021C#70430100084C0000
(1691508125.772814) can1 10FF031C#107228097931E564
(1691508125.801588) can1 18FEF100#FF0000FCFF3D00CF
(1691508125.802140) can1 0CF00400#507D8FE718000F90
(1691508125.811079) can1 0CF00400#407D8FF718000F8F
(1691508125.831169) can1 0CF00400#207D8F0519000F8F
(1691508125.851074) can1 0CF00400#107D8F1819000F8F
(1691508125.871113) can1 0CF00400#707D8E1A19000F8F
(1691508125.871658) can1 10FF011C#F6FA311804B25EC1
(1691508125.872243) can1 10FF021C#C06A0200084C0000
(1691508125.872788) can1 10FF031C#1012AF0A7931E564
(1691508125.885010) can1 18FEF100#FF0000FCFF3D00CF
(1691508125.891126) can1 0CF00400#007D8F1519000F8F
(1691508125.911129) can1 0CF00400#207D8FED18000F8F
(1691508125.931181) can1 0CF00400#007D90CC18000F90
(1691508125.951113) can1 0CF00400#607D8FDD18000F90
(1691508125.969285) can1 10FF031C#10B2350C7931E564
(1691508125.969837) can1 10FF011C#F6FA311803B25EC1
(1691508125.970404) can1 10FF021C#70050300084C0000
(1691508125.971392) can1 0CF00400#407D8FF818000F8F
(1691508125.985042) can1 18FEF100#FF0000FCFF3D00CF
(1691508125.991085) can1 0CF00400#207D8F0A19000F8F
(1691508126.011095) can1 0CF00400#007D8F1A19000F8F
(1691508126.031187) can1 0CF00400#107D8F1719000F8F
(1691508126.051107) can1 0CF00400#107D8F0D19000F8F
(1691508126.071136) can1 0CF00400#507D8FCA18000F90
(1691508126.071684) can1 10FF011C#F5FA311803B25EC1
(1691508126.072258) can1 10FF021C#80510100084C0000
(1691508126.072807) can1 10FF031C#1052BC0D7931E564
(1691508126.101451) can1 18FEF100#FF0000FCFF3D00CF
(1691508126.102010) can1 0CF00400#707D8FE518000F90
(1691508126.111140) can1 0CF00400#507D8FF018000F90
(1691508126.131218) can1 0CF00400#407D8F0019000F8F
(1691508126.151139) can1 0CF00400#107D8F2D19000F8F
(1691508126.171140) can1 0CF00400#707D8E2319000F8F
(1691508126.177232) can1 10FF031C#10B200007A31E564
(1691508126.177779) can1 10FF011C#F5FA311804B25EC1
(1691508126.178355) can1 10FF021C#20DE0100084C0000
(1691508126.185622) can1 18FEF100#FF0000FCFF3D00CF
(1691508126.191127) can1 0CF00400#007D8F2519000F8F
(1691508126.211138) can1 0CF00400#007D8F0719000F8F
(1691508126.231725) can1 0CF00400#607D8FE718000F90
(1691508126.251140) can1 0CF00400#407D8FF418000F90
(1691508126.271196) can1 0CF00400#307D8FFD18000F8F
(1691508126.272374) can1 10FF031C#105287017A31E564
(1691508126.272923) can1 10FF011C#F6FA311803B25EC1
(1691508126.273490) can1 10FF021C#60D80300084C0000
(1691508126.302506) can1 18FEF100#FF0000FCFF3D00CF
(1691508126.303069) can1 0CF00400#307D8F0D19000F8F
(1691508126.311126) can1 0CF00400#007D8F2419000F8F
(1691508126.331306) can1 0CF00400#007D8F1F19000F8F
(1691508126.351465) can1 0CF00400#107D8F0C19000F8F
(1691508126.370637) can1 10FF031C#10F20D037A31E564
(1691508126.371191) can1 10FF011C#F6FA311803B25EC1
(1691508126.371755) can1 0CF00400#507D8FCD18000F90
(1691508126.372333) can1 10FF021C#70240200084C0000
(1691508126.385098) can1 18FEF100#FF0000FCFF3D00CF
(1691508126.391212) can1 0CF00400#707D8FDE18000F90
(1691508126.411162) can1 0CF00400#507D8FEE18000F90
(1691508126.431258) can1 0CF00400#407D8FFA18000F90
(1691508126.451164) can1 0CF00400#407D8F1419000F8F
(1691508126.470245) can1 10FF031C#109294047A31E564
(1691508126.470798) can1 10FF011C#F6FA311803B25EC1
(1691508126.471362) can1 0CF00400#207D8F1919000F8F
(1691508126.471933) can1 10FF021C#D0970100084C0000
(1691508126.485066) can1 18FEF100#FF0000FCFF3D00CF
(1691508126.491143) can1 0CF00400#207D8F1A19000F8F
(1691508126.511171) can1 0CF00400#407D8FEC18000F90
(1691508126.531280) can1 0CF00400#307D90D518000F90
(1691508126.551191) can1 0CF00400#707D8FED18000F90
(1691508126.570725) can1 10FF031C#10321B067A31E564
(1691508126.571275) can1 10FF011C#F5FA311803B25EC1
(1691508126.571857) can1 10FF021C#20FD0000084C0000
(1691508126.600829) can1 0CF00400#607D8FF518000F90
(1691508126.601369) can1 0CF00400#507D8F1219000F90
(1691508126.601939) can1 18FEF100#FF0000FCFF3D00CF
(1691508126.611188) can1 0CF00400#207D8F2719000F8F
(1691508126.631284) can1 0CF00400#407D8F1E19000F8F
(1691508126.651168) can1 0CF00400#207D8F2519000F8F
(1691508126.670805) can1 10FF031C#10D2A1077A31E564
(1691508126.671354) can1 10FF011C#F6FA311804B25EC1
(1691508126.671921) can1 0CF00400#607D8FD918000F90
(1691508126.672504) can1 10FF021C#80320200084C0000
(1691508126.685150) can1 18FEF100#FF0000FCFF3D00CF
(1691508126.691223) can1 0CF00400#107D90E618000F90
(1691508126.711169) can1 0CF00400#707D8FFF18000F90
(1691508126.731712) can1 0CF00400#507D8F1619000F90
(1691508126.751191) can1 0CF00400#307D8F3019000F8F
(1691508126.770867) can1 10FF031C#107228097A31E564
(1691508126.771411) can1 10FF011C#F6FA311804B25EC1
(1691508126.771978) can1 10FF021C#10B10200084C0000
(1691508126.800952) can1 0CF00400#007D8F3C19000F8F
(1691508126.801514) can1 0CF00400#007D8F3719000F8F
(1691508126.802085) can1 18FEF100#FF0000FCFF3D00CF
(1691508126.811214) can1 0CF00400#207D8F0819000F8F
(1691508126.831343) can1 0CF00400#707D8FF118000F90
(1691508126.851243) can1 0CF00400#507D8FF618000F90
(1691508126.870859) can1 10FF031C#1012AF0A7A31E564
(1691508126.871408) can1 10FF011C#F6FA311804B25EC1
(1691508126.871972) can1 0CF00400#407D8F0319000F90
(1691508126.872542) can1 10FF021C#30EC0100084C0000
(1691508126.885104) can1 18FEF100#FF0000FCFF3D00CF
(1691508126.891269) can1 0CF00400#307D8F1719000F8F
(1691508126.911243) can1 0CF00400#707D8E2B19000F8F
(1691508126.931320) can1 0CF00400#707D8E2319000F8F
(1691508126.951230) can1 0CF00400#607D8E1A19000F8F
(1691508126.970794) can1 10FF031C#10B2350C7A31E564
(1691508126.971343) can1 10FF011C#F6FA311804B25EC1
(1691508126.971927) can1 10FF021C#20FD0000084C0000
(1691508127.000904) can1 0CF00400#207D8FE018000F8F
(1691508127.001461) can1 0CF00400#207D8F0119000F8F
(1691508127.002032) can1 18FEF100#FF0000FCFF3D00CF
(1691508127.011236) can1 0CF00400#107D8F0919000F8F
(1691508127.031316) can1 0CF00400#707D8E1619000F8F
(1691508127.051241) can1 0CF00400#307D8E3F19000F8E
(1691508127.071254) can1 0CF00400#107D8E3919000F8E
(1691508127.071806) can1 10FF011C#F7FA311804B25EC1
(1691508127.072379) can1 10FF021C#70E60300084C0000
(1691508127.072935) can1 10FF031C#1052BC0D7A31E564
(1691508127.085141) can1 18FEF100#FF0000FCFF3D00CF
(1691508127.091228) can1 0CF00400#307D8E3319000F8E
(1691508127.111217) can1 0CF00400#507D8EF918000F8F
(1691508127.131343) can1 0CF00400#407D8FD718000F8F
(1691508127.151292) can1 0CF00400#207D8FDF18000F8F
(1691508127.171277) can1 0CF00400#107D8FE618000F8F
(1691508127.177191) can1 10FF031C#10B200007B31E564
(1691508127.177742) can1 10FF011C#F7FA311804B25EC1
(1691508127.178313) can1 10FF021C#E0860200084C0000
(1691508127.207287) can1 18FEF100#FF0000FCFF3D00CF
(1691508127.207859) can1 0CF00400#007D8FF118000F8F
(1691508127.211264) can1 0CF00400#707D8E0A19000F8F
(1691508127.231862) can1 0CF00400#707D8E0719000F8F
(1691508127.251303) can1 0CF00400#007D8FF418000F8F
(1691508127.271317) can1 0CF00400#407D8FBB18000F90
(1691508127.272698) can1 10FF031C#105387017B31E564
(1691508127.273269) can1 10FF011C#F7FA311804B25EC1
(1691508127.273840) can1 10FF021C#20DE0100084C0000
(1691508127.286008) can1 18FEF100#FF0000FCFF3D00CF
(1691508127.291427) can1 0CF00400#607D8FD018000F90
(1691508127.311313) can1 0CF00400#507D8FDF18000F90
(1691508127.331490) can1 0CF00400#307D8FF218000F8F
(1691508127.351461) can1 0CF00400#107D8F0F19000F8F
(1691508127.370485) can1 10FF031C#10F30D037B31E564
(1691508127.371038) can1 10FF011C#F7FA311804B25EC1
(1691508127.371617) can1 10FF021C#C06A0200084C0000
(1691508127.372181) can1 0CF00400#007D8F0C19000F8F
(1691508127.385233) can1 18FEF100#FF0000FCFF3D00CF
(1691508127.391354) can1 0CF00400#107D8F0E19000F8F
(1691508127.411317) can1 0CF00400#207D8FE118000F8F
(1691508127.431413) can1 0CF00400#107D90CC18000F90
(1691508127.451320) can1 0CF00400#507D8FE518000F90
(1691508127.471286) can1 0CF00400#307D8FF518000F8F
(1691508127.471837) can1 10FF011C#F7FA311804B25EC1
(1691508127.472410) can1 10FF021C#40190100084C0000
(1691508127.472953) can1 10FF031C#109394047B31E564
(1691508127.501670) can1 18FEF100#FF0000FCFF3D00CF
(1691508127.502228) can1 0CF00400#107D8F1D19000F8F
(1691508127.511310) can1 0CF00400#607D8E2C19000F8F
(1691508127.531433) can1 0CF00400#707D8E2419000F8F
(1691508127.551369) can1 0CF00400#707D8E2519000F8F
(1691508127.571414) can1 0CF00400#307D8FE318000F8F
(1691508127.571944) can1 10FF011C#F6FA311804B25EC1
(1691508127.572512) can1 10FF021C#300B0100084C0000
(1691508127.573069) can1 10FF031C#10331B067B31E564
(1691508127.585277) can1 18FEF100#FF0000FCFF3D00CF
(1691508127.591367) can1 0CF00400#507D8FF618000F90
(1691508127.611326) can1 0CF00400#307D8F0519000F8F
(1691508127.631459) can1 0CF00400#207D8F0A19000F8F
(1691508127.651352) can1 0CF00400#107D8F2819000F8F
(1691508127.671344) can1 0CF00400#607D8E2919000F8F
(1691508127.671895) can1 10FF011C#F7FA311804B25EC1
(1691508127.672476) can1 10FF021C#90400200084C0000
(1691508127.673024) can1 10FF031C#10D3A1077B31E564
(1691508127.701692) can1 18FEF100#FF0000FCFF3D00CF
(1691508127.702257) can1 0CF00400#007D8F1C19000F8F
(1691508127.711358) can1 0CF00400#207D8FF118000F8F
(1691508127.731971) can1 0CF00400#707D8FE118000F90
(1691508127.751398) can1 0CF00400#507D8FE618000F90
(1691508127.771411) can1 10FF031C#107328097B31E564
(1691508127.771967) can1 0CF00400#307D8FF718000F8F
(1691508127.772523) can1 10FF011C#F6FA311804B25EC1
(1691508127.773083) can1 10FF021C#60160200084C0000
(1691508127.785301) can1 18FEF100#FF0000FCFF3D00CF
(1691508127.791340) can1 0CF00400#207D8F0D19000F8F
(1691508127.811357) can1 0CF00400#007D8F1E19000F8F
(1691508127.831484) can1 0CF00400#107D8F1519000F8F
(1691508127.851380) can1 0CF00400#107D8F0A19000F8F
(1691508127.869424) can1 10FF031C#1013AF0A7B31E564
(1691508127.869971) can1 10FF011C#F6FA311805B25EC1
(1691508127.870538) can1 10FF021C#10B10200084C0000
(1691508127.871910) can1 0CF00400#607D8FC118000F90
(1691508127.885320) can1 18FEF100#FF0000FCFF3D00CF
(1691508127.891427) can1 0CF00400#007D90DE18000F90
(1691508127.911379) can1 0CF00400#507D8FEF18000F90
(1691508127.931476) can1 0CF00400#407D8FFB18000F8F
(1691508127.951415) can1 0CF00400#107D8F2319000F8F
(1691508127.970880) can1 10FF031C#10B3350C7B31E564
(1691508127.971426) can1 10FF011C#F6FA311804B25EC1
(1691508127.971993) can1 10FF021C#40190100084C0000
(1691508128.000970) can1 0CF00400#007D8F2119000F8F
(1691508128.001522) can1 0CF00400#007D8F2B19000F8F
(1691508128.002094) can1 18FEF100#FF0000FCFF3D00CF
(1691508128.011439) can1 0CF00400#107D8FFA18000F8F
(1691508128.031502) can1 0CF00400#707D8FE218000F90
(1691508128.051449) can1 0CF00400#507D8FF218000F90
(1691508128.070813) can1 10FF031C#1053BC0D7B31E564
(1691508128.071361) can1 10FF011C#F6FA311804B25EC1
(1691508128.071940) can1 10FF021C#40FA0100084C0000
(1691508128.072513) can1 0CF00400#307D8F0019000F8F
(1691508128.085317) can1 18FEF100#FF0000FCFF3D00CF
(1691508128.091454) can1 0CF00400#307D8F1119000F8F
(1691508128.111417) can1 0CF00400#007D8F2819000F8F
(1691508128.131518) can1 0CF00400#007D8F1B19000F8F
(1691508128.151434) can1 0CF00400#107D8F0E19000F8F
(1691508128.171433) can1 0CF00400#507D8FD218000F90
(1691508128.177500) can1 10FF031C#10B300007C31E564
(1691508128.178048) can1 10FF011C#F6FA311805B25EC1
(1691508128.178620) can1 10FF021C#905F0100084C0000
(1691508128.207604) can1 18FEF100#FF0000FCFF3D00CF
(1691508128.208164) can1 0CF00400#007D90DA18000F90
(1691508128.211417) can1 0CF00400#707D8FED18000F90
(1691508128.232047) can1 0CF00400#407D8F0319000F90
(1691508128.251454) can1 0CF00400#307D8F1C19000F8F
(1691508128.271463) can1 0CF00400#207D8F1D19000F8F
(1691508128.273348) can1 10FF031C#105387017C31E564
(1691508128.273893) can1 10FF011C#F6FA311804B25EC1
(1691508128.274472) can1 10FF021C#40FA0100084C0000
(1691508128.286106) can1 18FEF100#FF0000FCFF3D00CF
(1691508128.291604) can1 0CF00400#307D8F1F19000F8F
(1691508128.311437) can1 0CF00400#507D8FEF18000F90
(1691508128.331624) can1 0CF00400#307D90D918000F90
(1691508128.351488) can1 0CF00400#707D8FF318000F90
(1691508128.369682) can1 10FF031C#10F30D037C31E564
(1691508128.370234) can1 10FF011C#F7FA311804B25EC1
(1691508128.370814) can1 10FF021C#D0780200084C0000
(1691508128.371999) can1 0CF00400#607D8FF818000F90
(1691508128.385798) can1 18FEF100#FF0000FCFF3D00CF
(1691508128.391510) can1 0CF00400#507D8F1A19000F90
(1691508128.411440) can1 0CF00400#107D8F3419000F8F
(1691508128.431528) can1 0CF00400#207D8F2819000F8F
(1691508128.451441) can1 0CF00400#107D8F2519000F8F
(1691508128.471474) can1 0CF00400#607D8FE218000F90
(1691508128.472308) can1 10FF031C#109394047C31E564
(1691508128.472872) can1 10FF011C#F7FA311804B25EC1
(1691508128.473442) can1 10FF021C#00E10000084C0000
(1691508128.502430) can1 18FEF100#FF0000FCFF3D00CF
(1691508128.502991) can1 0CF00400#707D8FF818000F90
(1691508128.511432) can1 0CF00400#507D8F0519000F90
(1691508128.531522) can1 0CF00400#407D8F1219000F8F
(1691508128.551488) can1 0CF00400#107D8F3419000F8F
(1691508128.571507) can1 0CF00400#607D8E3919000F8F
(1691508128.572070) can1 10FF011C#F8FA311804B25EC1
(1691508128.572649) can1 10FF021C#70620000084C0000
(1691508128.573205) can1 10FF031C#10331B067C31E564
(1691508128.585985) can1 18FEF100#FF0000FCFF3D00CF
(1691508128.591550) can1 0CF00400#007D8F3119000F8F
(1691508128.611512) can1 0CF00400#207D8FFC18000F8F
(1691508128.631590) can1 0CF00400#707D8FE818000F90
(1691508128.651510) can1 0CF00400#407D8FF618000F90
(1691508128.671507) can1 0CF00400#307D8F0619000F8F
(1691508128.672068) can1 10FF011C#FAFA311803B25EC1
(1691508128.672645) can1 10FF021C#300B0100084C0000
(1691508128.673201) can1 10FF031C#10D3A1077C31E564
(1691508128.701999) can1 18FEF100#FF0000FCFF3D00CF
(1691508128.702561) can1 0CF00400#107D8F1819000F8F
(1691508128.711477) can1 0CF00400#707D8E2719000F8F
(1691508128.732045) can1 0CF00400#707D8E2219000F8F
(1691508128.751531) can1 0CF00400#607D8E1319000F8F
(1691508128.771597) can1 0CF00400#307D8FD118000F8F
(1691508128.774939) can1 10FF031C#107328097C31E564
(1691508128.775492) can1 10FF011C#FAFA311803B25EC1
(1691508128.776068) can1 10FF021C#B07B0100084C0000
(1691508128.785434) can1 18FEF100#FF0000FCFF3D00CF
(1691508128.791542) can1 0CF00400#407D8FF518000F8F
(1691508128.811505) can1 0CF00400#007D8F0819000F8F
(1691508128.831604) can1 0CF00400#707D8E1919000F8F
(1691508128.851529) can1 0CF00400#307D8E4319000F8E
(1691508128.870269) can1 10FF031C#1013AF0A7C31E564
(1691508128.870832) can1 10FF011C#FBFA311803B25EC1
(1691508128.871406) can1 10FF021C#A06D0100084C0000
(1691508128.872070) can1 0CF00400#207D8E3719000F8E
(1691508128.885420) can1 18FEF100#FF0000FCFF3D00CF
(1691508128.891545) can1 0CF00400#407D8E3219000F8E
(1691508128.911490) can1 0CF00400#607D8EF718000F8F
(1691508128.931604) can1 0CF00400#407D8FDA18000F8F
(1691508128.951567) can1 0CF00400#207D8FE118000F8F
(1691508128.971560) can1 0CF00400#107D8FF218000F8F
(1691508128.972121) can1 10FF011C#FCFA311802B25EC1
(1691508128.972687) can1 10FF021C#70430100084C0000
(1691508128.973245) can1 10FF031C#10B3350C7C31E564
(1691508129.002057) can1 18FEF100#FF0000FCFF3D00CF
(1691508129.002614) can1 0CF00400#707D8E0619000F8F
(1691508129.011506) can1 0CF00400#607D8E1519000F8F
(1691508129.031610) can1 0CF00400#707D8E0819000F8F
(1691508129.051587) can1 0CF00400#707D8EFA18000F8F
(1691508129.071589) can1 0CF00400#307D8FC418000F8F
(1691508129.072430) can1 10FF031C#1053BC0D7C31E564
(1691508129.072985) can1 10FF011C#FDFA311802B25EC1
(1691508129.073561) can1 10FF021C#10EF0000084C0000
(1691508129.085466) can1 18FEF100#FF0000FCFF3D00CF
(1691508129.091589) can1 0CF00400#507D8FDA18000F90
(1691508129.111583) can1 0CF00400#307D8FEC18000F8F
(1691508129.131649) can1 0CF00400#107D8FF718000F8F
(1691508129.151586) can1 0CF00400#007D8F1419000F8F
(1691508129.171600) can1 0CF00400#707D8E1119000F8F
(1691508129.177813) can1 10FF031C#10B300007D31E564
(1691508129.178369) can1 10FF011C#FDFA311801B25EC1
(1691508129.178940) can1 10FF021C#B09A0000084C0000
(1691508129.207909) can1 18FEF100#FF0000FCFF3D00CF
(1691508129.208471) can1 0CF00400#107D8F0C19000F8F
(1691508129.211570) can1 0CF00400#207D8FCF18000F8F
(1691508129.232130) can1 0CF00400#107D90C918000F90
(1691508129.251598) can1 0CF00400#507D8FE118000F90
(1691508129.271606) can1 0CF00400#407D8FE218000F8F
(1691508129.273944) can1 10FF031C#105387017D31E564
(1691508129.274493) can1 10FF011C#FEFA311801B25EC1
(1691508129.275067) can1 10FF021C#907E0000084C0000
(1691508129.286174) can1 18FEF100#FF0000FCFF3D00CF
(1691508129.291749) can1 0CF00400#307D8F1019000F8F
(1691508129.311573) can1 0CF00400#707D8E2819000F8F
(1691508129.331750) can1 0CF00400#007D8F1F19000F8F
(1691508129.351619) can1 0CF00400#607D8E2219000F8F
(1691508129.370551) can1 10FF031C#10F30D037D31E564
(1691508129.371119) can1 10FF011C#FEFA3118F7B15EC1
(1691508129.371686) can1 10FF021C#50460000084C0000
(1691508129.372280) can1 0CF00400#307D8FDF18000F8F
(1691508129.385532) can1 18FEF100#FF0000FCFF3D00CF
(1691508129.391690) can1 0CF00400#507D8FF018000F90
(1691508129.411603) can1 0CF00400#307D8F0219000F8F
(1691508129.431674) can1 0CF00400#207D8F0A19000F8F
(1691508129.451633) can1 0CF00400#107D8F1F19000F8F
(1691508129.471378) can1 10FF031C#109394047D31E564
(1691508129.471930) can1 10FF011C#F1FA3118E9B15EC1
(1691508129.472498) can1 10FF021C#60160200084C0000
(1691508129.501468) can1 0CF00400#707D8E2719000F8F
(1691508129.502029) can1 0CF00400#707D8E2319000F8F
(1691508129.502600) can1 18FEF100#FF0000FCFF3D00CF
(1691508129.511616) can1 0CF00400#207D8FEC18000F8F
(1691508129.531677) can1 0CF00400#707D8FDB18000F90
(1691508129.551635) can1 0CF00400#507D8FEA18000F90
(1691508129.571670) can1 10FF031C#10331B067D31E564
(1691508129.572247) can1 0CF00400#207D8F0019000F8F
(1691508129.572790) can1 10FF011C#E5FA3118DCB15EC1
(1691508129.573365) can1 10FF021C#70620000084C0000
(1691508129.585532) can1 18FEF100#FF0000FCFF3D00CF
(1691508129.591680) can1 0CF00400#207D8F1A19000F8F
(1691508129.611604) can1 0CF00400#707D8E2A19000F8F
(1691508129.631712) can1 0CF00400#007D8F1B19000F8F
(1691508129.651687) can1 0CF00400#007D8F0B19000F8F
(1691508129.671682) can1 0CF00400#507D8FCC18000F90
(1691508129.672235) can1 10FF011C#DCFA3118D2B15EC1
(1691508129.672797) can1 10FF021C#D0B60000084C0000
(1691508129.673348) can1 10FF031C#10D3A1077D31E564
(1691508129.701790) can1 18FEF100#FF0000FCFF3D00CF
(1691508129.702356) can1 0CF00400#607D8FE918000F90
(1691508129.711645) can1 0CF00400#407D8FF318000F8F
(1691508129.732243) can1 0CF00400#207D8F0A19000F8F
(1691508129.751682) can1 0CF00400#707D8E3319000F8F
(1691508129.771733) can1 0CF00400#607D8E2319000F8F
(1691508129.772389) can1 10FF031C#107328097D31E564
(1691508129.772934) can1 10FF011C#D3FA3118C8B15EC1
(1691508129.773509) can1 10FF021C#B07B0100084C0000
(1691508129.785559) can1 18FEF100#FF0000FCFF3D00CF
(1691508129.791683) can1 0CF00400#007D8F2D19000F8F
(1691508129.811699) can1 0CF00400#107D8FF818000F8F
(1691508129.831776) can1 0CF00400#707D8FDF18000F90
(1691508129.851690) can1 0CF00400#407D8FF118000F90
(1691508129.869630) can1 10FF031C#1013AF0A7D31E564
(1691508129.870176) can1 10FF011C#CDFA3118C1B15EC1
(1691508129.870760) can1 10FF021C#20FD0000084C0000
(1691508129.872229) can1 0CF00400#307D8FFB18000F8F
(1691508129.885585) can1 18FEF100#FF0000FCFF3D00CF
(1691508129.891766) can1 0CF00400#207D8F0819000F8F
(1691508129.911695) can1 0CF00400#107D8F1F19000F8F
(1691508129.931739) can1 0CF00400#107D8F1219000F8F
(1691508129.951728) can1 0CF00400#207D8FF818000F8F
(1691508129.971677) can1 10FF031C#10B3350C7D31E564
(1691508129.972222) can1 10FF011C#C3FA3118B9B15EC1
(1691508129.972791) can1 10FF021C#A04E0200084C0000
(1691508130.001763) can1 0CF00400#707D8FC218000F90
(1691508130.002325) can1 0CF00400#707D8FDF18000F90
(1691508130.002896) can1 18FEF100#FF0000FCFF3D00CF
(1691508130.011701) can1 0CF00400#507D8FEF18000F90
(1691508130.031788) can1 0CF00400#407D8FFC18000F8F
(1691508130.051729) can1 0CF00400#207D8F1B19000F8F
(1691508130.071522) can1 10FF031C#1053BC0D7D31E564
(1691508130.072082) can1 0CF00400#107D8F1B19000F8F
(1691508130.072637) can1 10FF011C#BAFA3118B3B15EC1
(1691508130.073206) can1 10FF021C#B09A0000084C0000
(1691508130.085615) can1 18FEF100#FF0000FCFF3D00CF
(1691508130.091751) can1 0CF00400#307D8F1C19000F8F
(1691508130.111741) can1 0CF00400#407D8FE618000F90
(1691508130.131800) can1 0CF00400#307D90D718000F90
(1691508130.151747) can1 0CF00400#707D8FF018000F90
(1691508130.171743) can1 0CF00400#507D8F0219000F90
(1691508130.177825) can1 10FF031C#10B300007E31E564
(1691508130.178369) can1 10FF011C#B2FA3118ADB15EC1
(1691508130.178948) can1 10FF021C#40FA0100084C0000
(1691508130.207923) can1 18FEF100#FF0000FCFF3D00CF
(1691508130.208483) can1 0CF00400#407D8F1F19000F90
(1691508130.211719) can1 0CF00400#107D8F2B19000F8F
(1691508130.232307) can1 0CF00400#307D8F2219000F8F
(1691508130.251749) can1 0CF00400#107D8F2019000F8F
(1691508130.271786) can1 0CF00400#707D8FD618000F90
(1691508130.272407) can1 10FF031C#105387017E31E564
(1691508130.272954) can1 10FF011C#ABFA3118A7B15EC1
(1691508130.273522) can1 10FF021C#D0970100084C0000
(1691508130.286857) can1 18FEF100#FF0000FCFF3D00CF
(1691508130.291829) can1 0CF00400#007D90EA18000F90
(1691508130.311742) can1 0CF00400#607D8F0419000F90
(1691508130.331878) can1 0CF00400#407D8F1219000F8F
(1691508130.351750) can1 0CF00400#007D8F3C19000F8F
(1691508130.369987) can1 10FF031C#10F30D037E31E564
(1691508130.370535) can1 10FF011C#A8FA3118A2B15EC1
(1691508130.371106) can1 10FF021C#10D00100084C0000
(1691508130.372244) can1 0CF00400#607D8E3F19000F8F
(1691508130.385620) can1 18FEF100#FF0000FCFF3D00CF
(1691508130.391855) can1 0CF00400#007D8F3219000F8F
(1691508130.411773) can1 0CF00400#307D8FFC18000F8F
(1691508130.431829) can1 0CF00400#707D8FEF18000F90
(1691508130.451772) can1 0CF00400#407D8FF218000F90
(1691508130.471638) can1 10FF031C#109394047E31E564
(1691508130.472182) can1 10FF011C#A5FA31189EB15EC1
(1691508130.472754) can1 10FF021C#300B0100084C0000
(1691508130.501729) can1 0CF00400#307D8F0719000F8F
(1691508130.502292) can1 0CF00400#107D8F2B19000F8F
(1691508130.502864) can1 18FEF100#FF0000FCFF3D00CF
(1691508130.511756) can1 0CF00400#607D8E2B19000F8F
(1691508130.531833) can1 0CF00400#707D8E2219000F8F
(1691508130.551777) can1 0CF00400#607D8E1119000F8F
(1691508130.571738) can1 10FF031C#10331B067E31E564
(1691508130.572301) can1 0CF00400#407D8FD618000F8F
(1691508130.572849) can1 10FF011C#A1FA31189AB15EC1
(1691508130.573425) can1 10FF021C#70240200084C0000
(1691508130.585662) can1 18FEF100#FF0000FCFF3D00CF
(1691508130.591834) can1 0CF00400#407D8FF718000F8F
(1691508130.611801) can1 0CF00400#107D8F0419000F8F
(1691508130.631905) can1 0CF00400#007D8F1419000F8F
(1691508130.651800) can1 0CF00400#307D8E3D19000F8E
(1691508130.671518) can1 10FF031C#10D3A1077E31E564
(1691508130.672061) can1 10FF011C#9DFA311895B15EC1
(1691508130.672632) can1 10FF021C#C0890100084C0000
(1691508130.701605) can1 0CF00400#307D8E3619000F8E
(1691508130.702161) can1 0CF00400#407D8E3119000F8E
(1691508130.702733) can1 18FEF100#FF0000FCFF3D00CF
(1691508130.711773) can1 0CF00400#707D8EEA18000F8F
(1691508130.732405) can1 0CF00400#507D8FDD18000F90
(1691508130.751874) can1 0CF00400#107D8FEE18000F8F
(1691508130.771553) can1 10FF031C#107328097E31E564
(1691508130.772108) can1 0CF00400#007D8FF518000F8F
(1691508130.772658) can1 10FF011C#99FA311891B15EC1
(1691508130.773227) can1 10FF021C#D0B60000084C0000
(1691508130.785753) can1 18FEF100#FF0000FCFF3D00CF
(1691508130.791808) can1 0CF00400#007D8F0A19000F8F
(1691508130.811789) can1 0CF00400#607D8E2119000F8F
(1691508130.831877) can1 0CF00400#507D8E1719000F8F
(1691508130.851829) can1 0CF00400#607D8E0319000F8F
(1691508130.869953) can1 10FF031C#1014AF0A7E31E564
(1691508130.870498) can1 10FF011C#96FA31188EB15EC1
(1691508130.871082) can1 10FF021C#20FD0000084C0000
(1691508130.872366) can1 0CF00400#207D8FD018000F8F
(1691508130.885752) can1 18FEF100#FF0000FCFF3D00CF
(1691508130.892343) can1 0CF00400#307D8FE018000F8F
(1691508130.911824) can1 0CF00400#207D8FF718000F8F
(1691508130.931923) can1 0CF00400#007D8F0719000F8F
(1691508130.951838) can1 0CF00400#607D8E1A19000F8F
(1691508130.971789) can1 10FF031C#10B4350C7E31E564
(1691508130.972338) can1 10FF011C#92FA31188AB15EC1
(1691508130.972906) can1 10FF021C#50270100084C0000
(1691508131.001872) can1 0CF00400#607D8E1919000F8F
(1691508131.002428) can1 0CF00400#707D8E1819000F8F
(1691508131.003000) can1 18FEF100#FF0000FCFF3D00CF
(1691508131.011844) can1 0CF00400#107D8FD318000F8F
(1691508131.031936) can1 0CF00400#007D90C818000F90
(1691508131.051876) can1 0CF00400#407D8FDE18000F90
(1691508131.071663) can1 10FF031C#1054BC0D7E31E564
(1691508131.072269) can1 0CF00400#307D8FE618000F8F
(1691508131.072778) can1 10FF011C#8FFA311887B15EC1
(1691508131.073363) can1 10FF021C#20FD0000084C0000
(1691508131.085749) can1 18FEF100#FF0000FCFF3D00CF
(1691508131.091851) can1 0CF00400#207D8F1219000F8F
(1691508131.111835) can1 0CF00400#707D8E1B19000F8F
(1691508131.131953) can1 0CF00400#007D8F0F19000F8F
(1691508131.151868) can1 0CF00400#707D8E0719000F8F
(1691508131.171910) can1 0CF00400#507D8FD018000F90
(1691508131.178909) can1 10FF031C#10B400007F31E564
(1691508131.179460) can1 10FF011C#8CFA311883B15EC1
(1691508131.180034) can1 10FF021C#00A30200084C0000
(1691508131.209009) can1 18FEF100#FF0000FCFF3D00CF
(1691508131.209573) can1 0CF00400#607D8FE018000F90
(1691508131.211871) can1 0CF00400#407D8FEE18000F90
(1691508131.232437) can1 0CF00400#307D8FFB18000F8F
(1691508131.251898) can1 0CF00400#007D8F2119000F8F
(1691508131.271914) can1 0CF00400#707D8E1E19000F8F
(1691508131.272902) can1 10FF031C#105487017F31E564
(1691508131.273454) can1 10FF011C#8BFA311880B15EC1
(1691508131.274022) can1 10FF021C#40190100084C0000
(1691508131.286744) can1 18FEF100#FF0000FCFF3D00CF
(1691508131.292029) can1 0CF00400#007D8F1619000F8F
(1691508131.311911) can1 0CF00400#307D8FE518000F8F
(1691508131.332059) can1 0CF00400#707D8FDC18000F90
(1691508131.351929) can1 0CF00400#407D8FEB18000F90
(1691508131.370472) can1 10FF031C#10F40D037F31E564
(1691508131.371022) can1 10FF011C#89FA31187DB15EC1
(1691508131.371592) can1 10FF021C#B09A0000084C0000
(1691508131.372394) can1 0CF00400#207D8F0119000F8F
(1691508131.385802) can1 18FEF100#FF0000FCFF3D00CF
(1691508131.392432) can1 0CF00400#107D8F1A19000F8F
(1691508131.411919) can1 0CF00400#007D8F2019000F8F
(1691508131.432009) can1 0CF00400#007D8F1819000F8F
(1691508131.451945) can1 0CF00400#107D8FF918000F8F
(1691508131.471825) can1 10FF031C#109494047F31E564
(1691508131.472372) can1 10FF011C#87FA31187AB15EC1
(1691508131.472947) can1 10FF021C#20DE0100084C0000
(1691508131.501927) can1 0CF00400#707D8FC018000F90
(1691508131.502501) can1 0CF00400#707D8FE018000F90
(1691508131.503072) can1 18FEF100#FF0000FCFF3D00CF
(1691508131.511933) can1 0CF00400#407D8FF118000F90
(1691508131.531984) can1 0CF00400#307D8F0019000F8F
(1691508131.551941) can1 0CF00400#707D8E2819000F8F
(1691508131.571540) can1 10FF031C#10341B067F31E564
(1691508131.572099) can1 0CF00400#707D8E2019000F8F
(1691508131.572650) can1 10FF011C#86FA311877B15EC1
(1691508131.573222) can1 10FF021C#80510100084C0000
(1691508131.585868) can1 18FEF100#FF0000FCFF3D00CF
(1691508131.592177) can1 0CF00400#007D8F2619000F8F
(1691508131.611966) can1 0CF00400#207D8FED18000F8F
(1691508131.632064) can1 0CF00400#707D8FDC18000F90
(1691508131.651979) can1 0CF00400#507D8FED18000F90
(1691508131.671467) can1 10FF031C#10D4A1077F31E564
(1691508131.672016) can1 10FF011C#85FA311875B15EC1
(1691508131.672585) can1 10FF021C#60350100084C0000
(1691508131.701566) can1 0CF00400#307D8FF918000F8F
(1691508131.702123) can1 0CF00400#207D8F0D19000F8F
(1691508131.702695) can1 18FEF100#FF0000FCFF3D00CF
(1691508131.711949) can1 0CF00400#107D8F1D19000F8F
(1691508131.732491) can1 0CF00400#107D8F1119000F8F
(1691508131.752044) can1 0CF00400#107D8FFE18000F8F
(1691508131.771910) can1 10FF031C#107428097F31E564
(1691508131.772476) can1 0CF00400#607D8FC518000F90
(1691508131.773017) can1 10FF011C#84FA311872B15EC1
(1691508131.773591) can1 10FF021C#70620000084C0000
(1691508131.785866) can1 18FEF100#FF0000FCFF3D00CF
(1691508131.791911) can1 0CF00400#007D90D618000F90
(1691508131.811923) can1 0CF00400#607D8FEE18000F90
(1691508131.832047) can1 0CF00400#307D8F0319000F8F
(1691508131.851979) can1 0CF00400#107D8F2219000F8F
(1691508131.870907) can1 10FF031C#1014AF0A7F31E564
(1691508131.871452) can1 10FF011C#84FA311870B15EC1
(1691508131.872036) can1 10FF021C#20FD0000084C0000
(1691508131.872605) can1 0CF00400#007D8F2219000F8F
(1691508131.885877) can1 18FEF100#FF0000FCFF3D00CF
(1691508131.892017) can1 0CF00400#207D8F1919000F8F
(1691508131.911985) can1 0CF00400#507D8FDC18000F90
(1691508131.932066) can1 0CF00400#207D90DB18000F90
(1691508131.952021) can1 0CF00400#707D8FE618000F90
(1691508131.970992) can1 10FF031C#10B4350C7F31E564
(1691508131.971539) can1 10FF011C#84FA31186DB15EC1
(1691508131.972111) can1 10FF021C#70620000084C0000
(1691508132.001086) can1 0CF00400#707D8FE718000F90
(1691508132.001637) can1 0CF00400#607D8F1219000F90
(1691508132.002209) can1 18FEF100#FF0000FCFF3D00CF
(1691508132.011986) can1 0CF00400#207D8F2619000F8F
(1691508132.032079) can1 0CF00400#407D8F1819000F8F
(1691508132.052021) can1 0CF00400#207D8F1219000F8F
(1691508132.071036) can1 10FF031C#1054BC0D7F31E564
(1691508132.071585) can1 10FF011C#84FA31186BB15EC1
(1691508132.072151) can1 10FF021C#40190100084C0000
(1691508132.072715) can1 0CF00400#707D8FD918000F90
(1691508132.085905) can1 18FEF100#FF0000FCFF3D00CF
(1691508132.091980) can1 0CF00400#007D90EC18000F90
(1691508132.112034) can1 0CF00400#607D8F0419000F90
(1691508132.132111) can1 0CF00400#407D8F1419000F90
(1691508132.152038) can1 0CF00400#107D8F3719000F8F
(1691508132.172047) can1 0CF00400#707D8E4619000F8F
(1691508132.176837) can1 10FF031C#10B400008031E564
(1691508132.177383) can1 10FF011C#85FA311868B15EC1
(1691508132.177959) can1 10FF021C#B07B0100084C0000
(1691508132.206941) can1 18FEF100#FF0000FCFF3D00CF
(1691508132.207501) can1 0CF00400#707D8E3C19000F8F
(1691508132.212032) can1 0CF00400#207D8F0419000F8F
(1691508132.232617) can1 0CF00400#607D8FF818000F90
(1691508132.252042) can1 0CF00400#407D8F0819000F90
(1691508132.270747) can1 10FF031C#105487018031E564
(1691508132.271300) can1 10FF011C#85FA311866B15EC1
(1691508132.271879) can1 10FF021C#20FD0000084C0000
(1691508132.272557) can1 0CF00400#207D8F1719000F8F
(1691508132.286358) can1 18FEF100#FF0000FCFF3D00CF
(1691508132.292105) can1 0CF00400#007D8F2C19000F8F
(1691508132.311969) can1 0CF00400#607D8E3219000F8F
(1691508132.332174) can1 0CF00400#707D8E2819000F8F
(1691508132.352081) can1 0CF00400#607D8E1119000F8F
(1691508132.371677) can1 10FF031C#10F40D038031E564
(1691508132.372252) can1 0CF00400#407D8FD818000F8F
(1691508132.372797) can1 10FF011C#85FA311864B15EC1
(1691508132.373372) can1 10FF021C#60540000084C0000
(1691508132.385949) can1 18FEF100#FF0000FCFF3D00CF
(1691508132.392106) can1 0CF00400#307D8FF518000F8F
(1691508132.412032) can1 0CF00400#107D8F0319000F8F
(1691508132.432114) can1 0CF00400#707D8E1A19000F8F
(1691508132.452102) can1 0CF00400#307D8E3919000F8E
(1691508132.471722) can1 10FF031C#109494048031E564
(1691508132.472273) can1 10FF011C#85FA311862B15EC1
(1691508132.472845) can1 10FF021C#60540000084C0000
(1691508132.501815) can1 0CF00400#307D8E2C19000F8E
(1691508132.502378) can1 0CF00400#507D8E2C19000F8F
(1691508132.502949) can1 18FEF100#FF0000FCFF3D00CF
(1691508132.512066) can1 0CF00400#707D8EEA18000F8F
(1691508132.532154) can1 0CF00400#407D8FD618000F90
(1691508132.552126) can1 0CF00400#207D8FE518000F8F
(1691508132.571653) can1 10FF031C#10341B068031E564
(1691508132.572226) can1 0CF00400#007D8FF018000F8F
(1691508132.572783) can1 10FF011C#82FA31185FB15EC1
(1691508132.573359) can1 10FF021C#60540000084C0000
(1691508132.585985) can1 18FEF100#FF0000FCFF3D00CF
(1691508132.592050) can1 0CF00400#007D8F0819000F8F
(1691508132.612089) can1 0CF00400#607D8E1D19000F8F
(1691508132.632181) can1 0CF00400#507D8E1619000F8F
(1691508132.652141) can1 0CF00400#607D8E0019000F8F
(1691508132.671935) can1 10FF031C#10D4A1078031E564
(1691508132.672488) can1 10FF011C#81FA31185DB15EC1
(1691508132.673063) can1 10FF021C#00C20100084C0000
(1691508132.702018) can1 0CF00400#307D8FD718000F8F
(1691508132.702580) can1 0CF00400#207D8FEA18000F8F
(1691508132.703153) can1 18FEF100#FF0000FCFF3D00CF
(1691508132.712061) can1 0CF00400#107D8FF718000F8F
(1691508132.732626) can1 0CF00400#707D8E0419000F8F
(1691508132.752174) can1 0CF00400#607D8E2019000F8F
(1691508132.769755) can1 10FF031C#107428098031E564
(1691508132.770296) can1 10FF011C#7EFA31185AB15EC1
(1691508132.770864) can1 10FF021C#60350100084C0000
(1691508132.773170) can1 0CF00400#607D8E1519000F8F
(1691508132.786029) can1 18FEF100#FF0000FCFF3D00CF
(1691508132.792090) can1 0CF00400#007D8F0819000F8F
(1691508132.812098) can1 0CF00400#307D8FC918000F8F
(1691508132.832159) can1 0CF00400#107D90C218000F90
(1691508132.852147) can1 0CF00400#507D8FCF18000F90
(1691508132.871675) can1 10FF031C#1014AF0A8031E564
(1691508132.872227) can1 10FF011C#7CFA311858B15EC1
(1691508132.872794) can1 10FF021C#C0A80000084C0000
(1691508132.901764) can1 0CF00400#507D8FDC18000F90
(1691508132.902342) can1 0CF00400#207D8F0A19000F8F
(1691508132.902897) can1 18FEF100#FF0000FCFF3D00CF
(1691508132.912109) can1 0CF00400#007D8F1119000F8F
(1691508132.932205) can1 0CF00400#107D8F1019000F8F
(1691508132.952191) can1 0CF00400#007D8F0319000F8F
(1691508132.971895) can1 10FF031C#10B4350C8031E564
(1691508132.972462) can1 0CF00400#607D8FC418000F90
(1691508132.973007) can1 10FF011C#78FA311855B15EC1
(1691508132.973578) can1 10FF021C#60350100084C0000
(1691508132.986078) can1 18FEF100#FF0000FCFF3D00CF
(1691508132.992145) can1 0CF00400#707D8FDB18000F90
(1691508133.012150) can1 0CF00400#407D8FF518000F90
(1691508133.032254) can1 0CF00400#207D8FFC18000F8F
(1691508133.052161) can1 0CF00400#107D8F1919000F8F
(1691508133.071641) can1 10FF031C#1054BC0D8031E564
(1691508133.072182) can1 10FF011C#75FA311854B15EC1
(1691508133.072749) can1 10FF021C#D0B60000084C0000
(1691508133.101720) can1 0CF00400#707D8E2319000F8F
(1691508133.102274) can1 0CF00400#007D8F1B19000F8F
(1691508133.102843) can1 18FEF100#FF0000FCFF3D00CF
(1691508133.112186) can1 0CF00400#307D8FE818000F8F
(1691508133.132259) can1 0CF00400#707D8FDD18000F90
(1691508133.152197) can1 0CF00400#507D8FE818000F90
(1691508133.172200) can1 0CF00400#207D8F0719000F8F
(1691508133.177989) can1 10FF031C#10B400008131E564
(1691508133.178542) can1 10FF011C#70FA311851B15EC1
(1691508133.179121) can1 10FF021C#00E10000084C0000
(1691508133.187005) can1 18FEF100#FF0000FCFF3D00CF
(1691508133.192206) can1 0CF00400#107D8F2319000F8F
(1691508133.212163) can1 0CF00400#707D8E2719000F8F
(1691508133.232626) can1 0CF00400#007D8F1B19000F8F
(1691508133.252195) can1 0CF00400#007D8F0619000F8F
(1691508133.270456) can1 10FF031C#105487018131E564
(1691508133.271000) can1 10FF011C#6CFA31184FB15EC1
(1691508133.271577) can1 10FF021C#00C20100084C0000
(1691508133.272605) can1 0CF00400#607D8FCA18000F90
(1691508133.286635) can1 18FEF100#FF0000FCFF3D00CF
(1691508133.292218) can1 0CF00400#607D8FE418000F90
(1691508133.312206) can1 0CF00400#407D8FF018000F90
(1691508133.332333) can1 0CF00400#307D8F0319000F8F
(1691508133.352227) can1 0CF00400#707D8E2819000F8F
(1691508133.371641) can1 10FF031C#10F40D038131E564
(1691508133.372187) can1 10FF011C#6AFA31184CB15EC1
(1691508133.372758) can1 10FF021C#30CD0200084C0000
(1691508133.401717) can1 0CF00400#707D8E2619000F8F
(1691508133.402280) can1 0CF00400#707D8E2B19000F8F
(1691508133.402852) can1 18FEF100#FF0000FCFF3D00CF
(1691508133.412217) can1 0CF00400#207D8FF018000F8F
(1691508133.432284) can1 0CF00400#607D8FEA18000F90
(1691508133.452240) can1 0CF00400#307D8FF518000F8F
(1691508133.471679) can1 10FF031C#109494048131E564
(1691508133.472238) can1 10FF011C#68FA31184AB15EC1
(1691508133.472814) can1 0CF00400#207D8FFC18000F8F
(1691508133.473385) can1 10FF021C#F0B30100084C0000
(1691508133.486682) can1 18FEF100#FF0000FCFF3D00CF
(1691508133.492253) can1 0CF00400#207D8F1119000F8F
(1691508133.512178) can1 0CF00400#007D8F2D19000F8F
(1691508133.532294) can1 0CF00400#707D8E1B19000F8F
(1691508133.552220) can1 0CF00400#107D8FFF18000F8F
(1691508133.571962) can1 10FF031C#10341B068131E564
(1691508133.572514) can1 10FF011C#65FA311848B15EC1
(1691508133.573079) can1 10FF021C#F0D20000084C0000
(1691508133.602053) can1 0CF00400#607D8FD218000F90
(1691508133.602615) can1 0CF00400#607D8FE418000F90
(1691508133.603184) can1 18FEF100#FF0000FCFF3D00CF
(1691508133.612237) can1 0CF00400#407D8FFB18000F90
(1691508133.632346) can1 0CF00400#207D8F0B19000F8F
(1691508133.652273) can1 0CF00400#007D8F2419000F8F
(1691508133.671851) can1 10FF031C#10D4A1078131E564
(1691508133.672412) can1 0CF00400#007D8F2119000F8F
(1691508133.672965) can1 10FF011C#64FA311846B15EC1
(1691508133.673540) can1 10FF021C#70240200084C0000
(1691508133.686128) can1 18FEF100#FF0000FCFF3D00CF
(1691508133.692277) can1 0CF00400#107D8F1F19000F8F
(1691508133.712242) can1 0CF00400#407D8FDC18000F90
(1691508133.732633) can1 0CF00400#207D90D118000F90
(1691508133.752313) can1 0CF00400#607D8FE518000F90
(1691508133.769872) can1 10FF031C#107428098131E564
(1691508133.770416) can1 10FF011C#63FA311844B15EC1
(1691508133.770981) can1 10FF021C#50270100084C0000
(1691508133.773192) can1 0CF00400#507D8FED18000F90
(1691508133.786181) can1 18FEF100#FF0000FCFF3D00CF
(1691508133.792277) can1 0CF00400#407D8F0F19000F90
(1691508133.812252) can1 0CF00400#307D8F1719000F8F
(1691508133.832348) can1 0CF00400#407D8F1219000F90
(1691508133.852294) can1 0CF00400#307D8F0319000F8F
(1691508133.871882) can1 10FF031C#1014AF0A8131E564
(1691508133.872423) can1 10FF011C#60FA311842B15EC1
(1691508133.872988) can1 10FF021C#B09A0000084C0000
(1691508133.901950) can1 0CF00400#107D90CB18000F90
(1691508133.902518) can1 0CF00400#107D90DF18000F90
(1691508133.903088) can1 18FEF100#FF0000FCFF3D00CF
(1691508133.912294) can1 0CF00400#707D8FF518000F90
(1691508133.932351) can1 0CF00400#507D8F0919000F90
(1691508133.952306) can1 0CF00400#207D8F2F19000F8F
(1691508133.971008) can1 10FF031C#10B4350C8131E564
(1691508133.971563) can1 10FF011C#5FFA311840B15EC1
(1691508133.972134) can1 10FF021C#905F0100084C0000
(1691508133.972701) can1 0CF00400#007D8F3719000F8F
(1691508133.986163) can1 18FEF100#FF0000FCFF3D00CF
(1691508133.992280) can1 0CF00400#107D8F2F19000F8F
(1691508134.012288) can1 0CF00400#307D8FFF18000F8F
(1691508134.032350) can1 0CF00400#707D8FEE18000F90
(1691508134.052300) can1 0CF00400#507D8FF418000F90
(1691508134.071650) can1 10FF031C#1054BC0D8131E564
(1691508134.072214) can1 10FF011C#5DFA31183EB15EC1
(1691508134.072781) can1 10FF021C#F0B30100084C0000
(1691508134.101740) can1 0CF00400#407D8F0819000F90
(1691508134.102298) can1 0CF00400#207D8F2319000F8F
(1691508134.102866) can1 18FEF100#FF0000FCFF3D00CF
(1691508134.112321) can1 0CF00400#007D8F2C19000F8F
(1691508134.132418) can1 0CF00400#707D8E2B19000F8F
(1691508134.152371) can1 0CF00400#707D8E1019000F8F
(1691508134.172342) can1 0CF00400#407D8FE018000F90
(1691508134.178135) can1 10FF031C#10B400008231E564
(1691508134.178701) can1 10FF011C#5BFA31183CB15EC1
(1691508134.179276) can1 10FF021C#A06D0100084C0000
(1691508134.186778) can1 18FEF100#FF0000FCFF3D00CF
(1691508134.192353) can1 0CF00400#307D8F0219000F8F
(1691508134.212350) can1 0CF00400#107D8F0619000F8F
(1691508134.232639) can1 0CF00400#007D8F1519000F8F
(1691508134.252360) can1 0CF00400#407D8E3A19000F8E
(1691508134.270343) can1 10FF031C#105487018231E564
(1691508134.270900) can1 10FF011C#59FA31183BB15EC1
(1691508134.271476) can1 10FF021C#20FD0000084C0000
(1691508134.272603) can1 0CF00400#407D8E3019000F8E
(1691508134.286386) can1 18FEF100#FF0000FCFF3D00CF
(1691508134.292342) can1 0CF00400#507D8E2A19000F8F
(1691508134.312353) can1 0CF00400#007D8FE618000F8F
(1691508134.332459) can1 0CF00400#507D8FDE18000F90
(1691508134.352419) can1 0CF00400#207D8FE718000F8F
(1691508134.371525) can1 10FF031C#10F40D038231E564
(1691508134.372084) can1 10FF011C#5AFA31183FB15EC1
(1691508134.372663) can1 10FF021C#A06D0100084C0000
(1691508134.401629) can1 0CF00400#107D8FF818000F8F
(1691508134.402180) can1 0CF00400#707D8E1219000F8F
(1691508134.402753) can1 18FEF100#FF0000FCFF3D00CF
(1691508134.412345) can1 0CF00400#507D8E2119000F8F
(1691508134.432429) can1 0CF00400#507D8E1A19000F8F
(1691508134.452457) can1 0CF00400#607D8E0419000F8F
(1691508134.471152) can1 10FF031C#109594048231E564
(1691508134.471699) can1 10FF011C#5AFA311844B15EC1
(1691508134.472274) can1 10FF021C#D0970100084C0000
(1691508134.472842) can1 0CF00400#307D8FD118000F8F
(1691508134.486281) can1 18FEF100#FF0000FCFF3D00CF
(1691508134.492401) can1 0CF00400#407D8FE318000F8F
(1691508134.512404) can1 0CF00400#207D8FFE18000F8F
(1691508134.532449) can1 0CF00400#007D8F0A19000F8F
(1691508134.552389) can1 0CF00400#607D8E1B19000F8F
(1691508134.570894) can1 10FF031C#10351B068231E564
(1691508134.571428) can1 10FF011C#5BFA311848B15EC1
(1691508134.572002) can1 10FF021C#A06D0100084C0000
(1691508134.573172) can1 0CF00400#607D8E1919000F8F
(1691508134.586294) can1 18FEF100#FF0000FCFF3D00CF
(1691508134.592415) can1 0CF00400#707D8E1B19000F8F
(1691508134.612408) can1 0CF00400#107D8FDA18000F8F
(1691508134.632511) can1 0CF00400#607D8FDC18000F90
(1691508134.652466) can1 0CF00400#307D8FE418000F8F
(1691508134.671047) can1 10FF031C#10D5A1078231E564
(1691508134.671601) can1 10FF011C#5CFA31184BB15EC1
(1691508134.672173) can1 10FF021C#300B0100084C0000
(1691508134.701148) can1 0CF00400#307D8FE818000F8F
(1691508134.701704) can1 0CF00400#107D8F1919000F8F
(1691508134.702275) can1 18FEF100#FF0000FCFF3D00CF
(1691508134.712403) can1 0CF00400#707D8E1619000F8F
(1691508134.732659) can1 0CF00400#107D8F0A19000F8F
(1691508134.752499) can1 0CF00400#007D8FFD18000F8F
(1691508134.769726) can1 10FF031C#107528098231E564
(1691508134.770277) can1 10FF011C#5DFA31184FB15EC1
(1691508134.770850) can1 10FF021C#300B0100084C0000
(1691508134.773187) can1 0CF00400#507D8FCC18000F90
(1691508134.786289) can1 18FEF100#FF0000FCFF3D00CF
(1691508134.792437) can1 0CF00400#607D8FDD18000F90
(1691508134.812421) can1 0CF00400#407D8FF318000F8F
(1691508134.832526) can1 0CF00400#107D8F0319000F8F
(1691508134.852452) can1 0CF00400#007D8F1F19000F8F
(1691508134.870734) can1 10FF031C#1015AF0A8231E564
(1691508134.871277) can1 10FF011C#5DFA311852B15EC1
(1691508134.871853) can1 10FF021C#10EF0000084C0000
(1691508134.872653) can1 0CF00400#607D8E2719000F8F
(1691508134.886337) can1 18FEF100#FF0000FCFF3D00CF
(1691508134.892494) can1 0CF00400#707D8E1B19000F8F
(1691508134.912451) can1 0CF00400#307D8FE118000F8F
(1691508134.932525) can1 0CF00400#707D8FE218000F90
(1691508134.952491) can1 0CF00400#407D8FF218000F8F
(1691508134.970745) can1 10FF031C#10B5350C8231E564
(1691508134.971292) can1 10FF011C#5EFA311855B15EC1
(1691508134.971864) can1 10FF021C#80510100084C0000
(1691508135.000850) can1 0CF00400#207D8F0419000F8F
(1691508135.001402) can1 0CF00400#207D8F1A19000F8F
(1691508135.001973) can1 18FEF100#FF0000FCFF3D00CF
(1691508135.012440) can1 0CF00400#707D8E2619000F8F
(1691508135.032552) can1 0CF00400#007D8F1E19000F8F
(1691508135.052516) can1 0CF00400#007D8F0419000F8F
(1691508135.070866) can1 10FF031C#1055BC0D8231E564
(1691508135.071412) can1 10FF011C#5EFA311858B15EC1
(1691508135.071981) can1 10FF021C#F0D20000084C0000
(1691508135.072628) can1 0CF00400#607D8FD118000F90
(1691508135.086329) can1 18FEF100#FF0000FCFF3D00CF
(1691508135.092501) can1 0CF00400#507D8FED18000F90
(1691508135.112477) can1 0CF00400#407D8FF618000F8F
(1691508135.132576) can1 0CF00400#207D8F0519000F8F
(1691508135.152519) can1 0CF00400#007D8F1E19000F8F
(1691508135.172505) can1 0CF00400#007D8F1419000F8F
(1691508135.176816) can1 10FF031C#10B500008331E564
(1691508135.177367) can1 10FF011C#5FFA31185AB15EC1
(1691508135.177935) can1 10FF021C#D0B60000084C0000
(1691508135.206913) can1 18FEF100#FF0000FCFF3D00CF
(1691508135.207469) can1 0CF00400#107D8F2219000F8F
(1691508135.212488) can1 0CF00400#307D8FDB18000F8F
(1691508135.232676) can1 0CF00400#107D90D118000F90
(1691508135.252539) can1 0CF00400#607D8FE518000F90
(1691508135.269675) can1 10FF031C#105587018331E564
(1691508135.270222) can1 10FF011C#5FFA31185DB15EC1
(1691508135.270794) can1 10FF021C#80510100084C0000
(1691508135.272557) can1 0CF00400#307D8FFA18000F8F
(1691508135.286499) can1 18FEF100#FF0000FCFF3D00CF
(1691508135.292522) can1 0CF00400#307D8F0E19000F8F
(1691508135.312472) can1 0CF00400#107D8F1E19000F8F
(1691508135.332598) can1 0CF00400#107D8F1719000F8F
(1691508135.352594) can1 0CF00400#207D8FFC18000F8F
(1691508135.371150) can1 10FF031C#10F50D038331E564
(1691508135.371704) can1 10FF011C#60FA31185FB15EC1
(1691508135.372293) can1 10FF021C#20FD0000084C0000
(1691508135.372858) can1 0CF00400#707D8FD318000F90
(1691508135.386390) can1 18FEF100#FF0000FCFF3D00CF
(1691508135.392580) can1 0CF00400#007D90DF18000F90
(1691508135.412532) can1 0CF00400#707D8FF718000F90
(1691508135.432592) can1 0CF00400#407D8F0B19000F90
(1691508135.452612) can1 0CF00400#107D8F2919000F8F
(1691508135.470818) can1 10FF031C#109594048331E564
(1691508135.471366) can1 10FF011C#61FA311861B15EC1
(1691508135.471957) can1 10FF021C#E0C40000084C0000
(1691508135.500909) can1 0CF00400#107D8F2419000F8F
(1691508135.501475) can1 0CF00400#307D8F1E19000F8F
(1691508135.502046) can1 18FEF100#FF0000FCFF3D00CF
(1691508135.512540) can1 0CF00400#607D8FE418000F90
(1691508135.532602) can1 0CF00400#207D90E418000F90
(1691508135.552587) can1 0CF00400#607D8FF218000F90
(1691508135.571030) can1 10FF031C#10351B068331E564
(1691508135.571577) can1 10FF011C#61FA311863B15EC1
(1691508135.572156) can1 10FF021C#00E10000084C0000
(1691508135.572729) can1 0CF00400#607D8FFA18000F90
(1691508135.586388) can1 18FEF100#FF0000FCFF3D00CF
(1691508135.592561) can1 0CF00400#407D8F2519000F90
(1691508135.612544) can1 0CF00400#107D8F2919000F8F
(1691508135.632639) can1 0CF00400#107D8F2619000F8F
(1691508135.652602) can1 0CF00400#007D8F1219000F8F
(1691508135.671162) can1 10FF031C#10D5A1078331E564
(1691508135.671708) can1 10FF011C#62FA311866B15EC1
(1691508135.672285) can1 10FF021C#F0B30100084C0000
(1691508135.701252) can1 0CF00400#607D8FDF18000F90
(1691508135.701817) can1 0CF00400#507D8FFB18000F90
(1691508135.702388) can1 18FEF100#FF0000FCFF3D00CF
(1691508135.712549) can1 0CF00400#307D8F0D19000F8F
(1691508135.732665) can1 0CF00400#007D8F1619000F8F
(1691508135.752614) can1 0CF00400#507D8E3819000F8F
(1691508135.769552) can1 10FF031C#107528098331E564
(1691508135.770099) can1 10FF011C#62FA311868B15EC1
(1691508135.770671) can1 10FF021C#C0A80000084C0000
(1691508135.772985) can1 0CF00400#307D8E4819000F8E
(1691508135.786425) can1 18FEF100#FF0000FCFF3D00CF
(1691508135.792531) can1 0CF00400#307D8E3D19000F8E
(1691508135.812522) can1 0CF00400#707D8EFF18000F8F
(1691508135.832674) can1 0CF00400#207D8FFA18000F8F
(1691508135.852618) can1 0CF00400#707D8E0019000F8F
(1691508135.870860) can1 10FF031C#1015AF0A8331E564
(1691508135.871410) can1 10FF011C#63FA31186AB15EC1
(1691508135.871986) can1 10FF021C#A06D0100084C0000
(1691508135.872695) can1 0CF00400#707D8E1019000F8F
(1691508135.886429) can1 18FEF100#FF0000FCFF3D00CF
(1691508135.892656) can1 0CF00400#507D8E2619000F8F
(1691508135.912562) can1 0CF00400#307D8E2519000F8E
(1691508135.932637) can1 0CF00400#407D8E1A19000F8F
(1691508135.952640) can1 0CF00400#507D8EFA18000F8F
(1691508135.970946) can1 10FF031C#10B5350C8331E564
(1691508135.971494) can1 10FF011C#64FA31186CB15EC1
(1691508135.972062) can1 10FF021C#40190100084C0000
(1691508136.001038) can1 0CF00400#407D8FC218000F90
(1691508136.001607) can1 0CF00400#407D8FDC18000F8F
(1691508136.002178) can1 18FEF100#FF0000FCFF3D00CF
(1691508136.012564) can1 0CF00400#207D8FEF18000F8F
(1691508136.032660) can1 0CF00400#707D8E0719000F8F
(1691508136.052648) can1 0CF00400#507D8E2019000F8F
(1691508136.072632) can1 10FF031C#1055BC0D8331E564
(1691508136.073202) can1 0CF00400#607D8E0F19000F8F
(1691508136.073749) can1 10FF011C#64FA31186EB15EC1
(1691508136.074326) can1 10FF021C#10EF0000084C0000
(1691508136.086467) can1 18FEF100#FF0000FCFF3D00CF
(1691508136.092612) can1 0CF00400#007D8F0E19000F8F
(1691508136.112590) can1 0CF00400#207D8FD018000F8F
(1691508136.132733) can1 0CF00400#707D8FC818000F90
(1691508136.152645) can1 0CF00400#507D8FD218000F90
(1691508136.172639) can1 0CF00400#407D8FDF18000F90
(1691508136.177151) can1 10FF031C#10B500008431E564
(1691508136.177692) can1 10FF011C#64FA311870B15EC1
(1691508136.178264) can1 10FF021C#C0A80000084C0000
(1691508136.207255) can1 18FEF100#FF0000FCFF3D00CF
(1691508136.207819) can1 0CF00400#307D8F0319000F8F
(1691508136.212645) can1 0CF00400#007D8F1819000F8F
(1691508136.232687) can1 0CF00400#007D8F1219000F8F
(1691508136.252643) can1 0CF00400#107D8F0119000F8F
(1691508136.270226) can1 10FF031C#105587018431E564
(1691508136.270773) can1 10FF011C#65FA311872B15EC1
(1691508136.271345) can1 10FF021C#80510100084C0000
(1691508136.272705) can1 0CF00400#507D8FDF18000F90
(1691508136.286686) can1 18FEF100#FF0000FCFF3D00CF
(1691508136.292665) can1 0CF00400#407D8FF018000F90
(1691508136.312643) can1 0CF00400#307D8F0319000F8F
(1691508136.332723) can1 0CF00400#107D8F1419000F8F
(1691508136.352690) can1 0CF00400#707D8E2A19000F8F
(1691508136.370685) can1 10FF031C#10F50D038431E564
(1691508136.371231) can1 10FF011C#66FA311874B15EC1
(1691508136.371804) can1 10FF021C#905F0100084C0000
(1691508136.372691) can1 0CF00400#707D8E2719000F8F
(1691508136.386519) can1 18FEF100#FF0000FCFF3D00CF
(1691508136.392855) can1 0CF00400#007D8F2119000F8F
(1691508136.412627) can1 0CF00400#307D8FDB18000F8F
(1691508136.432706) can1 0CF00400#007D90D918000F90
(1691508136.452750) can1 0CF00400#407D8FEA18000F90
(1691508136.471665) can1 10FF031C#109594048431E564
(1691508136.472220) can1 10FF011C#66FA311875B15EC1
(1691508136.472791) can1 10FF021C#100E0000084C0000
(1691508136.501756) can1 0CF00400#407D8FF018000F8F
(1691508136.502321) can1 0CF00400#207D8F1D19000F8F
(1691508136.502905) can1 18FEF100#FF0000FCFF3D00CF
(1691508136.512631) can1 0CF00400#707D8E2619000F8F
(1691508136.532762) can1 0CF00400#007D8F2019000F8F
(1691508136.552720) can1 0CF00400#007D8F0819000F8F
(1691508136.571762) can1 10FF031C#10351B068431E564
(1691508136.572315) can1 10FF011C#67FA311876B15EC1
(1691508136.572884) can1 10FF021C#E0860200084C0000
(1691508136.573456) can1 0CF00400#707D8FD018000F90
(1691508136.586542) can1 18FEF100#FF0000FCFF3D00CF
(1691508136.592723) can1 0CF00400#607D8FE718000F90
(1691508136.612679) can1 0CF00400#407D8FF918000F8F
(1691508136.632800) can1 0CF00400#207D8F0819000F8F
(1691508136.652756) can1 0CF00400#007D8F2419000F8F
(1691508136.671168) can1 10FF031C#10D5A1078431E564
(1691508136.671718) can1 10FF011C#68FA311878B15EC1
(1691508136.672295) can1 10FF021C#A08C0000084C0000
(1691508136.701249) can1 0CF00400#707D8E2619000F8F
(1691508136.701812) can1 0CF00400#007D8F2419000F8F
(1691508136.702383) can1 18FEF100#FF0000FCFF3D00CF
(1691508136.712728) can1 0CF00400#207D8FF018000F8F
(1691508136.732841) can1 0CF00400#607D8FEC18000F90
(1691508136.752794) can1 0CF00400#407D8FFA18000F8F
(1691508136.772189) can1 10FF031C#107528098431E564
(1691508136.772730) can1 10FF011C#68FA31187BB15EC1
(1691508136.773306) can1 10FF021C#A06D0100084C0000
(1691508136.773871) can1 0CF00400#207D8F1A19000F8F
(1691508136.786581) can1 18FEF100#FF0000FCFF3D00CF
(1691508136.792724) can1 0CF00400#007D8F2E19000F8F
(1691508136.812723) can1 0CF00400#607D8E2B19000F8F
(1691508136.832795) can1 0CF00400#007D8F2119000F8F
(1691508136.852769) can1 0CF00400#007D8F0019000F8F
(1691508136.871914) can1 10FF031C#1015AF0A8431E564
(1691508136.872466) can1 10FF011C#69FA31187BB15EC1
(1691508136.873034) can1 10FF021C#F0750300084C0000
(1691508136.902015) can1 0CF00400#707D8FD018000F90
(1691508136.902575) can1 0CF00400#607D8FEA18000F90
(1691508136.903147) can1 18FEF100#FF0000FCFF3D00CF
(1691508136.912740) can1 0CF00400#407D8FF318000F8F
(1691508136.932810) can1 0CF00400#307D8F0219000F8F
(1691508136.952779) can1 0CF00400#007D8F2519000F8F
(1691508136.970914) can1 10FF031C#10B5350C8431E564
(1691508136.971462) can1 10FF011C#69FA31187CB15EC1
(1691508136.972038) can1 10FF021C#40380000084C0000
(1691508136.972786) can1 0CF00400#107D8F1219000F8F
(1691508136.986634) can1 18FEF100#FF0000FCFF3D00CF
(1691508136.992777) can1 0CF00400#307D8F1819000F8F
(1691508137.012749) can1 0CF00400#507D8FDA18000F90
(1691508137.032816) can1 0CF00400#107D90DE18000F90
(1691508137.052800) can1 0CF00400#707D8FE918000F90
(1691508137.071016) can1 10FF031C#1055BC0D8431E564
(1691508137.071565) can1 10FF011C#69FA31187DB15EC1
(1691508137.072136) can1 10FF021C#C0A80000084C0000
(1691508137.072830) can1 0CF00400#607D8FF418000F90
(1691508137.086611) can1 18FEF100#FF0000FCFF3D00CF
(1691508137.092753) can1 0CF00400#507D8F1319000F90
(1691508137.112762) can1 0CF00400#307D8F2319000F8F
(1691508137.132856) can1 0CF00400#307D8F1B19000F8F
(1691508137.152819) can1 0CF00400#407D8F0019000F8F
(1691508137.172810) can1 0CF00400#107D90D618000F90
(1691508137.176973) can1 10FF031C#10B500008531E564
(1691508137.177521) can1 10FF011C#69FA31187DB15EC1
(1691508137.178089) can1 10FF021C#C0890100084C0000
(1691508137.207078) can1 18FEF100#FF0000FCFF3D00CF
(1691508137.207638) can1 0CF00400#107D90E918000F90
(1691508137.212757) can1 0CF00400#607D8F0B19000F90
(1691508137.232864) can1 0CF00400#307D8F1B19000F8F
(1691508137.252825) can1 0CF00400#107D8F3719000F8F
(1691508137.272798) can1 0CF00400#707D8E3F19000F8F
(1691508137.274819) can1 10FF031C#105587018531E564
(1691508137.275366) can1 10FF011C#69FA31187EB15EC1
(1691508137.275937) can1 10FF021C#F0B30100084C0000
(1691508137.287080) can1 18FEF100#FF0000FCFF3D00CF
(1691508137.292816) can1 0CF00400#707D8E4119000F8F
(1691508137.312814) can1 0CF00400#207D8FF818000F8F
(1691508137.332902) can1 0CF00400#507D8F0219000F90
(1691508137.352862) can1 0CF00400#207D8F0F19000F8F
(1691508137.371110) can1 10FF031C#10F50D038531E564
(1691508137.371656) can1 10FF011C#69FA31187FB15EC1
(1691508137.372232) can1 10FF021C#80510100084C0000
(1691508137.372860) can1 0CF00400#207D8F1319000F8F
(1691508137.386676) can1 18FEF100#FF0000FCFF3D00CF
(1691508137.392832) can1 0CF00400#707D8E3819000F8F
(1691508137.412790) can1 0CF00400#407D8E3619000F8E
(1691508137.432869) can1 0CF00400#507D8E2A19000F8F
(1691508137.452888) can1 0CF00400#407D8E1019000F8F
(1691508137.471163) can1 10FF031C#109594048531E564
(1691508137.471710) can1 10FF011C#69FA31187FB15EC1
(1691508137.472285) can1 10FF021C#10EF0000084C0000
(1691508137.501261) can1 0CF00400#307D8FDE18000F8F
(1691508137.501828) can1 0CF00400#107D8FF118000F8F
(1691508137.502399) can1 18FEF100#FF0000FCFF3D00CF
(1691508137.512812) can1 0CF00400#707D8E0519000F8F
(1691508137.532892) can1 0CF00400#407D8E1419000F8F
(1691508137.552849) can1 0CF00400#207D8E2C19000F8E
(1691508137.570950) can1 10FF031C#10351B068531E564
(1691508137.571497) can1 10FF011C#69FA31187FB15EC1
(1691508137.572073) can1 10FF021C#60540000084C0000
(1691508137.573373) can1 0CF00400#207D8E2519000F8E
(1691508137.586734) can1 18FEF100#FF0000FCFF3D00CF
(1691508137.592866) can1 0CF00400#307D8E1D19000F8E
(1691508137.612844) can1 0CF00400#707D8EDC18000F8F
(1691508137.632967) can1 0CF00400#207D8FE618000F8F
(1691508137.652906) can1 0CF00400#007D8FEC18000F8F
(1691508137.669709) can1 10FF031C#10D5A1078531E564
(1691508137.670255) can1 10FF011C#6AFA31187FB15EC1
(1691508137.670829) can1 10FF021C#B07B0100084C0000
(1691508137.672922) can1 0CF00400#007D8FF718000F8F
(1691508137.686696) can1 18FEF100#FF0000FCFF3D00CF
(1691508137.692877) can1 0CF00400#707D8E0D19000F8F
(1691508137.712845) can1 0CF00400#607D8E0919000F8F
(1691508137.732961) can1 0CF00400#007D8FFE18000F8F
(1691508137.752943) can1 0CF00400#007D8FDC18000F8F
(1691508137.771090) can1 10FF031C#107528098531E564
(1691508137.771648) can1 10FF011C#6AFA311880B15EC1
(1691508137.772224) can1 10FF021C#A08C0000084C0000
(1691508137.801198) can1 0CF00400#707D8FBB18000F90
(1691508137.801791) can1 0CF00400#507D8FDB18000F90
(1691508137.802339) can1 18FEF100#FF0000FCFF3D00CF
(1691508137.812887) can1 0CF00400#307D8FEA18000F8F
(1691508137.832909) can1 0CF00400#107D8FFF18000F8F
(1691508137.852879) can1 0CF00400#607D8E2219000F8F
(1691508137.871083) can1 10FF031C#1015AF0A8531E564
(1691508137.871640) can1 10FF011C#6AFA311880B15EC1
(1691508137.872220) can1 10FF021C#70620000084C0000
(1691508137.872964) can1 0CF00400#707D8E1019000F8F
(1691508137.886739) can1 18FEF100#FF0000FCFF3D00CF
(1691508137.892945) can1 0CF00400#007D8F1419000F8F
(1691508137.912884) can1 0CF00400#307D8FCD18000F8F
(1691508137.932910) can1 0CF00400#007D90CB18000F90
(1691508137.952926) can1 0CF00400#507D8FE418000F90
(1691508137.971277) can1 10FF031C#10B5350C8531E564
(1691508137.971831) can1 10FF011C#6AFA311881B15EC1
(1691508137.972403) can1 10FF021C#50270100084C0000
(1691508138.001390) can1 0CF00400#307D8FF018000F8F
(1691508138.001945) can1 0CF00400#207D8F0D19000F8F
(1691508138.002516) can1 18FEF100#FF0000FCFF3D00CF
(1691508138.012915) can1 0CF00400#007D8F1F19000F8F
(1691508138.032924) can1 0CF00400#007D8F1F19000F8F
(1691508138.052899) can1 0CF00400#007D8F0319000F8F
(1691508138.071880) can1 10FF031C#1056BC0D8531E564
(1691508138.072438) can1 10FF011C#6AFA311881B15EC1
(1691508138.073014) can1 10FF021C#00E10000084C0000
(1691508138.073582) can1 0CF00400#607D8FDA18000F90
(1691508138.086803) can1 18FEF100#FF0000FCFF3D00CF
(1691508138.092916) can1 0CF00400#407D8FF018000F90
(1691508138.112944) can1 0CF00400#207D8F0A19000F8F
(1691508138.133018) can1 0CF00400#007D8F1A19000F8F
(1691508138.152929) can1 0CF00400#607D8E3319000F8F
(1691508138.172931) can1 0CF00400#607D8E2619000F8F
(1691508138.175593) can1 10FF031C#10B600008631E564
(1691508138.176145) can1 10FF011C#6AFA311881B15EC1
(1691508138.176713) can1 10FF021C#50270100084C0000
(1691508138.205703) can1 18FEF100#FF0000FCFF3D00CF
(1691508138.206268) can1 0CF00400#007D8F1F19000F8F
(1691508138.212965) can1 0CF00400#307D8FDB18000F8F
(1691508138.233040) can1 0CF00400#707D8FDE18000F90
(1691508138.252955) can1 0CF00400#507D8FE518000F90
(1691508138.272913) can1 0CF00400#407D8FF518000F90
(1691508138.273464) can1 10FF011C#6AFA311883B15EC1
(1691508138.274035) can1 10FF021C#B09A0000084C0000
(1691508138.274592) can1 10FF031C#105687018631E564
(1691508138.287073) can1 18FEF100#FF0000FCFF3D00CF
(1691508138.292934) can1 0CF00400#207D8F2119000F8F
(1691508138.312964) can1 0CF00400#707D8E2019000F8F
(1691508138.333056) can1 0CF00400#107D8F1A19000F8F
(1691508138.352999) can1 0CF00400#007D8F0419000F8F
(1691508138.372066) can1 10FF031C#10F60D038631E564
(1691508138.372625) can1 10FF011C#6BFA311884B15EC1
(1691508138.373189) can1 10FF021C#40190100084C0000
(1691508138.373755) can1 0CF00400#607D8FD718000F90
(1691508138.386807) can1 18FEF100#FF0000FCFF3D00CF
(1691508138.392974) can1 0CF00400#507D8FEF18000F90
(1691508138.412959) can1 0CF00400#307D8F0019000F8F
(1691508138.433045) can1 0CF00400#207D8F0719000F8F
(1691508138.453058) can1 0CF00400#007D8F2C19000F8F
(1691508138.471850) can1 10FF031C#109694048631E564
(1691508138.472408) can1 10FF011C#6AFA311884B15EC1
(1691508138.472972) can1 10FF021C#D0B60000084C0000
(1691508138.501943) can1 0CF00400#607D8E2819000F8F
(1691508138.502513) can1 0CF00400#007D8F2019000F8F
(1691508138.503083) can1 18FEF100#FF0000FCFF3D00CF
(1691508138.513021) can1 0CF00400#307D8FE418000F8F
(1691508138.533064) can1 0CF00400#507D8FF818000F90
(1691508138.553017) can1 0CF00400#307D8F0119000F8F
(1691508138.571058) can1 10FF031C#10361B068631E564
(1691508138.571608) can1 10FF011C#6AFA311885B15EC1
(1691508138.572183) can1 10FF021C#80700000084C0000
(1691508138.573478) can1 0CF00400#207D8F1419000F8F
(1691508138.586838) can1 18FEF100#FF0000FCFF3D00CF
(1691508138.593031) can1 0CF00400#107D8F3019000F8F
(1691508138.613029) can1 0CF00400#707D8E2D19000F8F
(1691508138.633096) can1 0CF00400#107D8F2219000F8F
(1691508138.653035) can1 0CF00400#107D8FFF18000F8F
(1691508138.670273) can1 10FF031C#10D6A1078631E564
(1691508138.670826) can1 10FF011C#69FA311885B15EC1
(1691508138.671394) can1 10FF021C#40DB0200084C0000
(1691508138.673064) can1 0CF00400#107D90CE18000F90
(1691508138.686885) can1 18FEF100#FF0000FCFF3D00CF
(1691508138.693047) can1 0CF00400#007D90E418000F90
(1691508138.713050) can1 0CF00400#607D8FF718000F90
(1691508138.733132) can1 0CF00400#507D8F0619000F90
(1691508138.753057) can1 0CF00400#207D8F2219000F8F
(1691508138.771223) can1 10FF031C#107628098631E564
(1691508138.771777) can1 10FF011C#69FA311885B15EC1
(1691508138.772357) can1 10FF021C#70240200084C0000
(1691508138.801329) can1 0CF00400#307D8F1C19000F8F
(1691508138.801884) can1 0CF00400#207D8F2A19000F8F
(1691508138.802456) can1 18FEF100#FF0000FCFF3D00CF
(1691508138.813069) can1 0CF00400#607D8FE018000F90
(1691508138.833117) can1 0CF00400#107D90EA18000F90
(1691508138.853043) can1 0CF00400#607D8F0119000F90
(1691508138.871188) can1 10FF031C#1016AF0A8631E564
(1691508138.871740) can1 10FF011C#69FA311885B15EC1
(1691508138.872317) can1 10FF021C#B09A0000084C0000
(1691508138.873085) can1 0CF00400#507D8F0D19000F90
(1691508138.886921) can1 18FEF100#FF0000FCFF3D00CF
(1691508138.893098) can1 0CF00400#307D8F3319000F8F
(1691508138.913016) can1 0CF00400#707D8E4119000F8F
(1691508138.933111) can1 0CF00400#707D8E3719000F8F
(1691508138.953072) can1 0CF00400#007D8F1619000F8F
(1691508138.971035) can1 10FF031C#10B6350C8631E564
(1691508138.971590) can1 10FF011C#69FA311885B15EC1
(1691508138.972169) can1 10FF021C#40FA0100084C0000
(1691508138.973106) can1 0CF00400#507D8FF918000F90
(1691508138.986907) can1 18FEF100#FF0000FCFF3D00CF
(1691508138.993069) can1 0CF00400#307D8F0019000F8F
(1691508139.013092) can1 0CF00400#207D8F1319000F8F
(1691508139.033140) can1 0CF00400#707D8E2D19000F8F
(1691508139.053113) can1 0CF00400#307D8E4319000F8E
(1691508139.071043) can1 10FF031C#1056BC0D8631E564
(1691508139.071589) can1 10FF011C#68FA311886B15EC1
(1691508139.072155) can1 10FF021C#70050300084C0000
(1691508139.101129) can1 0CF00400#307D8E3B19000F8E
(1691508139.101698) can1 0CF00400#307D8E3419000F8E
(1691508139.102270) can1 18FEF100#FF0000FCFF3D00CF
(1691508139.113129) can1 0CF00400#707D8EE918000F8F
(1691508139.133200) can1 0CF00400#107D8FFC18000F8F
(1691508139.153112) can1 0CF00400#707D8E0419000F8F
(1691508139.173090) can1 0CF00400#607D8E0219000F8F
(1691508139.175036) can1 10FF031C#10B600008731E564
(1691508139.175583) can1 10FF011C#69FA311886B15EC1
(1691508139.176167) can1 10FF021C#D0970100084C0000
(1691508139.187541) can1 18FEF100#FF0000FCFF3D00CF
(1691508139.193091) can1 0CF00400#507D8E2419000F8F
(1691508139.213116) can1 0CF00400#207D8E1F19000F8E
(1691508139.233153) can1 0CF00400#407D8E1719000F8E
(1691508139.253099) can1 0CF00400#607D8EEC18000F8F
(1691508139.272815) can1 10FF031C#105687018731E564
(1691508139.273359) can1 10FF011C#69FA311886B15EC1
(1691508139.273935) can1 10FF021C#A06D0100084C0000
(1691508139.302920) can1 0CF00400#507D8FC718000F90
(1691508139.303479) can1 0CF00400#207D8FDC18000F8F
(1691508139.304048) can1 18FEF100#FF0000FCFF3D00CF
(1691508139.313148) can1 0CF00400#107D8FE618000F8F
(1691508139.333225) can1 0CF00400#007D8FF518000F8F
(1691508139.353142) can1 0CF00400#607D8E1719000F8F
(1691508139.370972) can1 10FF031C#10F60D038731E564
(1691508139.371518) can1 10FF011C#69FA311887B15EC1
(1691508139.372089) can1 10FF021C#80320200084C0000
(1691508139.373190) can1 0CF00400#607D8E1019000F8F
(1691508139.387000) can1 18FEF100#FF0000FCFF3D00CF
(1691508139.393179) can1 0CF00400#707D8E0619000F8F
(1691508139.413163) can1 0CF00400#207D8FC618000F8F
(1691508139.433196) can1 0CF00400#607D8FD018000F90
(1691508139.453153) can1 0CF00400#407D8FE218000F8F
(1691508139.471071) can1 10FF031C#109694048731E564
(1691508139.471617) can1 10FF011C#69FA311886B15EC1
(1691508139.472193) can1 10FF021C#302A0000084C0000
(1691508139.473205) can1 0CF00400#207D8FF418000F8F
(1691508139.486978) can1 18FEF100#FF0000FCFF3D00CF
(1691508139.493142) can1 0CF00400#107D8F0B19000F8F
(1691508139.513159) can1 0CF00400#007D8F0619000F8F
(1691508139.533203) can1 0CF00400#107D8F0B19000F8F
(1691508139.553204) can1 0CF00400#107D8FE218000F8F
(1691508139.571115) can1 10FF031C#10361B068731E564
(1691508139.571664) can1 10FF011C#69FA311887B15EC1
(1691508139.572240) can1 10FF021C#10D00100084C0000
(1691508139.601214) can1 0CF00400#107D90BE18000F90
(1691508139.601777) can1 0CF00400#607D8FE018000F90
(1691508139.602349) can1 18FEF100#FF0000FCFF3D00CF
(1691508139.613160) can1 0CF00400#307D8FF218000F8F
(1691508139.633261) can1 0CF00400#107D8F0E19000F8F
(1691508139.653207) can1 0CF00400#607D8E2E19000F8F
(1691508139.670323) can1 10FF031C#10D6A1078731E564
(1691508139.670868) can1 10FF011C#69FA311887B15EC1
(1691508139.671436) can1 10FF021C#E0A50100084C0000
(1691508139.673204) can1 0CF00400#707D8E1D19000F8F
(1691508139.686999) can1 18FEF100#FF0000FCFF3D00CF
(1691508139.693203) can1 0CF00400#007D8F1719000F8F
(1691508139.713226) can1 0CF00400#307D8FD618000F8F
(1691508139.733281) can1 0CF00400#607D8FE118000F90
(1691508139.753226) can1 0CF00400#407D8FEB18000F90
(1691508139.771830) can1 10FF031C#107628098731E564
(1691508139.772382) can1 10FF011C#69FA311888B15EC1
(1691508139.772950) can1 10FF021C#F0B30100084C0000
(1691508139.801941) can1 0CF00400#307D8FF818000F8F
(1691508139.802495) can1 0CF00400#207D8F1919000F8F
(1691508139.803065) can1 18FEF100#FF0000FCFF3D00CF
(1691508139.813207) can1 0CF00400#707D8E2019000F8F
(1691508139.833261) can1 0CF00400#007D8F1719000F8F
(1691508139.853229) can1 0CF00400#107D8FFB18000F8F
(1691508139.871902) can1 10FF031C#1016AF0A8731E564
(1691508139.872454) can1 10FF011C#6AFA311888B15EC1
(1691508139.873018) can1 10FF021C#50270100084C0000
(1691508139.873589) can1 0CF00400#607D8FDE18000F90
(1691508139.887042) can1 18FEF100#FF0000FCFF3D00CF
(1691508139.893246) can1 0CF00400#407D8FED18000F90
(1691508139.913215) can1 0CF00400#207D8F0619000F8F
(1691508139.933272) can1 0CF00400#007D8F1619000F8F
(1691508139.953232) can1 0CF00400#607D8E2D19000F8F
(1691508139.971155) can1 10FF031C#10B6350C8731E564
(1691508139.971705) can1 10FF011C#69FA311889B15EC1
(1691508139.972284) can1 10FF021C#80320200084C0000
(1691508139.973265) can1 0CF00400#707D8E2419000F8F
(1691508139.987082) can1 18FEF100#FF0000FCFF3D00CF
(1691508139.993212) can1 0CF00400#707D8E1419000F8F
(1691508140.013237) can1 0CF00400#407D8FC918000F8F
(1691508140.033306) can1 0CF00400#607D8FE818000F90
(1691508140.053278) can1 0CF00400#307D8FF718000F8F
(1691508140.071252) can1 10FF031C#1056BC0D8731E564
(1691508140.071808) can1 10FF011C#6AFA311889B15EC1
(1691508140.072387) can1 10FF021C#B09A0000084C0000
(1691508140.101363) can1 0CF00400#307D8FFE18000F8F
(1691508140.101920) can1 0CF00400#007D8F3219000F8F
(1691508140.102488) can1 18FEF100#FF0000FCFF3D00CF
(1691508140.113258) can1 0CF00400#507D8E2C19000F8F
(1691508140.133327) can1 0CF00400#607D8E2D19000F8F
(1691508140.153277) can1 0CF00400#607D8E0D19000F8F
(1691508140.173257) can1 0CF00400#507D8FE018000F90
(1691508140.175597) can1 10FF031C#10B600008831E564
(1691508140.176148) can1 10FF011C#6BFA31188AB15EC1
(1691508140.176719) can1 10FF021C#F0D20000084C0000
(1691508140.187707) can1 18FEF100#FF0000FCFF3D00CF
(1691508140.193245) can1 0CF00400#407D8FED18000F90
(1691508140.213282) can1 0CF00400#207D8F0019000F8F
(1691508140.233325) can1 0CF00400#107D8F0919000F8F
(1691508140.253294) can1 0CF00400#007D8F2019000F8F
(1691508140.273170) can1 10FF031C#105687018831E564
(1691508140.273724) can1 10FF011C#6BFA31188AB15EC1
(1691508140.274300) can1 10FF021C#70620000084C0000
(1691508140.303271) can1 0CF00400#007D8F1C19000F8F
(1691508140.303833) can1 0CF00400#107D8F1019000F8F
(1691508140.304410) can1 18FEF100#FF0000FCFF3D00CF
(1691508140.313269) can1 0CF00400#407D8FD118000F90
(1691508140.333340) can1 0CF00400#007D90DA18000F90
(1691508140.353304) can1 0CF00400#607D8FEE18000F90
(1691508140.371271) can1 10FF031C#10F60D038831E564
(1691508140.371820) can1 10FF011C#6CFA31188AB15EC1
(1691508140.372391) can1 10FF021C#D0970100084C0000
(1691508140.373359) can1 0CF00400#407D8F0419000F8F
(1691508140.387139) can1 18FEF100#FF0000FCFF3D00CF
(1691508140.393331) can1 0CF00400#307D8F2219000F8F
(1691508140.413279) can1 0CF00400#107D8F1D19000F8F
(1691508140.433339) can1 0CF00400#207D8F1A19000F8F
(1691508140.453336) can1 0CF00400#307D8FF518000F8F
(1691508140.471945) can1 10FF031C#109694048831E564
(1691508140.472492) can1 10FF011C#6CFA31188BB15EC1
(1691508140.473074) can1 10FF021C#00C20100084C0000
(1691508140.473649) can1 0CF00400#207D90D618000F90
(1691508140.487166) can1 18FEF100#FF0000FCFF3D00CF
(1691508140.493289) can1 0CF00400#707D8FED18000F90
(1691508140.513305) can1 0CF00400#507D8FF718000F90
(1691508140.533343) can1 0CF00400#407D8F1E19000F8F
(1691508140.553332) can1 0CF00400#707D8E3F19000F8F
(1691508140.571784) can1 10FF031C#10361B068831E564
(1691508140.572331) can1 10FF011C#6DFA31188BB15EC1
(1691508140.572904) can1 10FF021C#C0A80000084C0000
(1691508140.601871) can1 0CF00400#007D8F3319000F8F
(1691508140.602431) can1 0CF00400#707D8E3919000F8F
(1691508140.603003) can1 18FEF100#FF0000FCFF3D00CF
(1691508140.613299) can1 0CF00400#307D8FF518000F8F
(1691508140.633421) can1 0CF00400#507D8F0019000F90
(1691508140.653386) can1 0CF00400#307D8F1019000F8F
(1691508140.670020) can1 10FF031C#10D6A1078831E564
(1691508140.670570) can1 10FF011C#6DFA31188CB15EC1
(1691508140.671137) can1 10FF021C#F0D20000084C0000
(1691508140.673400) can1 0CF00400#107D8F1A19000F8F
(1691508140.687158) can1 18FEF100#FF0000FCFF3D00CF
(1691508140.693344) can1 0CF00400#007D8F2E19000F8F
(1691508140.713313) can1 0CF00400#507D8E3A19000F8F
(1691508140.733410) can1 0CF00400#507D8E2919000F8F
(1691508140.753379) can1 0CF00400#007D8FF818000F8F
(1691508140.771397) can1 10FF031C#107628098831E564
(1691508140.771944) can1 10FF011C#6EFA31188DB15EC1
(1691508140.772511) can1 10FF021C#40190100084C0000
(1691508140.801498) can1 0CF00400#607D8FDC18000F90
(1691508140.802062) can1 0CF00400#307D8FED18000F8F
(1691508140.802630) can1 18FEF100#FF0000FCFF3D00CF
(1691508140.813359) can1 0CF00400#107D8FF618000F8F
(1691508140.833396) can1 0CF00400#007D8F0519000F8F
(1691508140.853374) can1 0CF00400#607D8E1C19000F8F
(1691508140.871280) can1 10FF031C#1016AF0A8831E564
(1691508140.871826) can1 10FF011C#6EFA31188DB15EC1
(1691508140.872393) can1 10FF021C#40190100084C0000
(1691508140.873429) can1 0CF00400#607D8E1419000F8F
(1691508140.887236) can1 18FEF100#FF0000FCFF3D00CF
(1691508140.893388) can1 0CF00400#607D8E0D19000F8F
(1691508140.913391) can1 0CF00400#207D8FC518000F8F
(1691508140.933419) can1 0CF00400#407D8FE318000F90
(1691508140.953390) can1 0CF00400#107D8FF118000F8F
(1691508140.971261) can1 10FF031C#10B6350C8831E564
(1691508140.971827) can1 10FF011C#6EFA31188DB15EC1
(1691508140.972382) can1 10FF021C#D0B60000084C0000
(1691508140.973445) can1 0CF00400#007D8F0119000F8F
(1691508140.987201) can1 18FEF100#FF0000FCFF3D00CF
(1691508140.993340) can1 0CF00400#507D8E2319000F8F
(1691508141.013367) can1 0CF00400#407D8E1419000F8F
(1691508141.033435) can1 0CF00400#607D8E1419000F8F
(1691508141.053384) can1 0CF00400#607D8EEF18000F8F
(1691508141.071409) can1 10FF031C#1056BC0D8831E564
(1691508141.071961) can1 10FF011C#6FFA31188EB15EC1
(1691508141.072533) can1 10FF021C#F0B30100084C0000
(1691508141.101506) can1 0CF00400#507D8FC818000F90
(1691508141.102070) can1 0CF00400#407D8FDC18000F8F
(1691508141.102642) can1 18FEF100#FF0000FCFF3D00CF
(1691508141.113402) can1 0CF00400#107D8FF218000F8F
(1691508141.133482) can1 0CF00400#707D8E0219000F8F
(1691508141.153397) can1 0CF00400#607D8E1E19000F8F
(1691508141.173404) can1 0CF00400#607D8E1319000F8F
(1691508141.177053) can1 10FF031C#10B600008931E564
(1691508141.177596) can1 10FF011C#70FA31188EB15EC1
(1691508141.178180) can1 10FF021C#20FD0000084C0000
(1691508141.187798) can1 18FEF100#FF0000FCFF3D00CF
(1691508141.193404) can1 0CF00400#007D8FFF18000F8F
(1691508141.213627) can1 0CF00400#307D8FC918000F8F
(1691508141.233489) can1 0CF00400#507D8FD718000F90
(1691508141.253425) can1 0CF00400#407D8FE218000F90
(1691508141.273063) can1 10FF031C#105687018931E564
(1691508141.273616) can1 10FF011C#70FA31188FB15EC1
(1691508141.274193) can1 10FF021C#70620000084C0000
(1691508141.303171) can1 0CF00400#307D8FEE18000F8F
(1691508141.303725) can1 0CF00400#107D8F1219000F8F
(1691508141.304301) can1 18FEF100#FF0000FCFF3D00CF
(1691508141.313871) can1 0CF00400#007D8F0B19000F8F
(1691508141.333491) can1 0CF00400#107D8F0619000F8F
(1691508141.353469) can1 0CF00400#207D8FE318000F8F
(1691508141.371950) can1 10FF031C#10F60D038931E564
(1691508141.372505) can1 10FF011C#70FA31188FB15EC1
(1691508141.373076) can1 10FF021C#10EF0000084C0000
(1691508141.373643) can1 0CF00400#107D90C618000F90
(1691508141.387298) can1 18FEF100#FF0000FCFF3D00CF
(1691508141.393456) can1 0CF00400#507D8FE718000F90
(1691508141.413417) can1 0CF00400#207D8FF718000F8F
(1691508141.433444) can1 0CF00400#107D8F1419000F8F
(1691508141.453455) can1 0CF00400#507D8E2C19000F8F
(1691508141.471331) can1 10FF031C#109694048931E564
(1691508141.471875) can1 10FF011C#71FA311890B15EC1
(1691508141.472451) can1 10FF021C#300B0100084C0000
(1691508141.473489) can1 0CF00400#707D8E2419000F8F
(1691508141.487276) can1 18FEF100#FF0000FCFF3D00CF
(1691508141.493411) can1 0CF00400#707D8E1E19000F8F
(1691508141.513420) can1 0CF00400#307D8FD218000F8F
(1691508141.533468) can1 0CF00400#607D8FDF18000F90
(1691508141.553439) can1 0CF00400#307D8FF618000F8F
(1691508141.571186) can1 10FF031C#10361B068931E564
(1691508141.571730) can1 10FF011C#71FA311890B15EC1
(1691508141.572309) can1 10FF021C#80700000084C0000
(1691508141.601288) can1 0CF00400#207D8FFD18000F8F
(1691508141.601847) can1 0CF00400#107D8F1619000F8F
(1691508141.602419) can1 18FEF100#FF0000FCFF3D00CF
(1691508141.613425) can1 0CF00400#707D8E2319000F8F
(1691508141.633551) can1 0CF00400#707D8E1B19000F8F
(1691508141.653486) can1 0CF00400#107D8FF918000F8F
(1691508141.671922) can1 10FF031C#10D7A1078931E564
(1691508141.672470) can1 10FF011C#71FA311891B15EC1
(1691508141.673049) can1 10FF021C#20FD0000084C0000
(1691508141.673625) can1 0CF00400#607D8FDF18000F90
(1691508141.687314) can1 18FEF100#FF0000FCFF3D00CF
(1691508141.693438) can1 0CF00400#407D8FE718000F90
(1691508141.713422) can1 0CF00400#207D8F0519000F8F
(1691508141.733559) can1 0CF00400#007D8F1A19000F8F
(1691508141.753528) can1 0CF00400#707D8E2519000F8F
(1691508141.771345) can1 10FF031C#107728098931E564
(1691508141.771889) can1 10FF011C#72FA311892B15EC1
(1691508141.772470) can1 10FF021C#A06D0100084C0000
(1691508141.801469) can1 0CF00400#007D8F1A19000F8F
(1691508141.802004) can1 0CF00400#007D8F1419000F8F
(1691508141.802575) can1 18FEF100#FF0000FCFF3D00CF
(1691508141.813499) can1 0CF00400#407D8FCB18000F8F
(1691508141.833564) can1 0CF00400#707D8FDF18000F90
(1691508141.853533) can1 0CF00400#407D8FF018000F8F
(1691508141.871252) can1 10FF031C#1017AF0A8931E564
(1691508141.871810) can1 10FF011C#71FA311892B15EC1
(1691508141.872384) can1 10FF021C#30EC0100084C0000
(1691508141.873590) can1 0CF00400#307D8F0219000F8F
(1691508141.887335) can1 18FEF100#FF0000FCFF3D00CF
(1691508141.893542) can1 0CF00400#007D8F3119000F8F
(1691508141.913482) can1 0CF00400#607D8E2B19000F8F
(1691508141.933591) can1 0CF00400#707D8E2B19000F8F
(1691508141.953527) can1 0CF00400#007D8F0219000F8F
(1691508141.971437) can1 10FF031C#10B7350C8931E564
(1691508141.971983) can1 10FF011C#72FA311893B15EC1
(1691508141.972556) can1 10FF021C#E0A50100084C0000
(1691508142.001536) can1 0CF00400#707D8FE318000F90
(1691508142.002097) can1 0CF00400#507D8FEF18000F90
(1691508142.002668) can1 18FEF100#FF0000FCFF3D00CF
(1691508142.013509) can1 0CF00400#407D8FFB18000F8F
(1691508142.033578) can1 0CF00400#407D8F0C19000F8F
(1691508142.053542) can1 0CF00400#107D8F2B19000F8F
(1691508142.070866) can1 10FF031C#1057BC0D8931E564
(1691508142.071411) can1 10FF011C#73FA311893B15EC1
(1691508142.071990) can1 10FF021C#00E10000084C0000
(1691508142.073587) can1 0CF00400#107D8F1D19000F8F
(1691508142.087405) can1 18FEF100#FF0000FCFF3D00CF
(1691508142.093530) can1 0CF00400#307D8F0919000F8F
(1691508142.113544) can1 0CF00400#707D8FCD18000F90
(1691508142.133647) can1 0CF00400#107D90DC18000F90
(1691508142.153564) can1 0CF00400#707D8FF018000F90
(1691508142.173557) can1 0CF00400#407D8F0A19000F90
(1691508142.178020) can1 10FF031C#10B700008A31E564
(1691508142.178563) can1 10FF011C#73FA311894B15EC1
(1691508142.179130) can1 10FF021C#F0D20000084C0000
(1691508142.208121) can1 18FEF100#FF0000FCFF3D00CF
(1691508142.208680) can1 0CF00400#207D8F2819000F8F
(1691508142.213531) can1 0CF00400#007D8F2919000F8F
(1691508142.233662) can1 0CF00400#007D8F2C19000F8F
(1691508142.253602) can1 0CF00400#107D8FFC18000F8F
(1691508142.273308) can1 10FF031C#105787018A31E564
(1691508142.273870) can1 0CF00400#007D90DE18000F90
(1691508142.274418) can1 10FF011C#73FA311894B15EC1
(1691508142.275002) can1 10FF021C#20FD0000084C0000
(1691508142.287695) can1 18FEF100#FF0000FCFF3D00CF
(1691508142.293569) can1 0CF00400#407D8FFE18000F90
(1691508142.313563) can1 0CF00400#207D8F0119000F8F
(1691508142.333629) can1 0CF00400#107D8F1A19000F8F
(1691508142.353588) can1 0CF00400#507D8E3019000F8F
(1691508142.371351) can1 10FF031C#10F70D038A31E564
(1691508142.371897) can1 10FF011C#73FA311895B15EC1
(1691508142.372475) can1 10FF021C#10EF0000084C0000
(1691508142.373646) can1 0CF00400#607D8E2A19000F8F
(1691508142.387443) can1 18FEF100#FF0000FCFF3D00CF
(1691508142.393557) can1 0CF00400#407D8E2C19000F8F
(1691508142.413582) can1 0CF00400#007D8FEC18000F8F
(1691508142.433659) can1 0CF00400#107D8FF818000F8F
(1691508142.453543) can1 0CF00400#007D8F0219000F8F
(1691508142.471078) can1 10FF031C#109794048A31E564
(1691508142.471620) can1 10FF011C#73FA311896B15EC1
(1691508142.472229) can1 10FF021C#20FD0000084C0000
(1691508142.501176) can1 0CF00400#607D8E1219000F8F
(1691508142.501734) can1 0CF00400#507D8E2319000F8F
(1691508142.502306) can1 18FEF100#FF0000FCFF3D00CF
(1691508142.513549) can1 0CF00400#307D8E1F19000F8E
(1691508142.533653) can1 0CF00400#507D8E1119000F8F
(1691508142.553606) can1 0CF00400#707D8EE318000F8F
(1691508142.569856) can1 10FF031C#10371B068A31E564
(1691508142.570404) can1 10FF011C#74FA311896B15EC1
(1691508142.570979) can1 10FF021C#907E0000084C0000
(1691508142.573662) can1 0CF00400#507D8FC318000F90
(1691508142.587482) can1 18FEF100#FF0000FCFF3D00CF
(1691508142.593615) can1 0CF00400#307D8FCA18000F8F
(1691508142.613633) can1 0CF00400#207D8FDC18000F8F
(1691508142.633697) can1 0CF00400#007D8FF218000F8F
(1691508142.653607) can1 0CF00400#707D8E0519000F8F
(1691508142.671388) can1 10FF031C#10D7A1078A31E564
(1691508142.671931) can1 10FF011C#74FA311897B15EC1
(1691508142.672507) can1 10FF021C#B09A0000084C0000
(1691508142.701476) can1 0CF00400#707D8E0119000F8F
(1691508142.702041) can1 0CF00400#707D8EF018000F8F
(1691508142.702612) can1 18FEF100#FF0000FCFF3D00CF
(1691508142.713656) can1 0CF00400#507D8FB018000F90
(1691508142.733700) can1 0CF00400#707D8FCE18000F90
(1691508142.753677) can1 0CF00400#407D8FDE18000F8F
(1691508142.771261) can1 10FF031C#107728098A31E564
(1691508142.771788) can1 10FF011C#74FA311897B15EC1
(1691508142.772361) can1 10FF021C#B09A0000084C0000
(1691508142.774678) can1 0CF00400#307D8FEA18000F8F
(1691508142.787490) can1 18FEF100#FF0000FCFF3D00CF
(1691508142.793613) can1 0CF00400#007D8F1A19000F8F
(1691508142.813620) can1 0CF00400#607D8E1519000F8F
(1691508142.833714) can1 0CF00400#007D8F1019000F8F
(1691508142.853662) can1 0CF00400#107D8FEA18000F8F
(1691508142.871452) can1 10FF031C#1017AF0A8A31E564
(1691508142.871994) can1 10FF011C#74FA311898B15EC1
(1691508142.872561) can1 10FF021C#40190100084C0000
(1691508142.901548) can1 0CF00400#007D90CB18000F90
(1691508142.902116) can1 0CF00400#507D8FE118000F90
(1691508142.902687) can1 18FEF100#FF0000FCFF3D00CF
(1691508142.913616) can1 0CF00400#207D8FF918000F8F
(1691508142.933736) can1 0CF00400#107D8F0C19000F8F
(1691508142.953674) can1 0CF00400#707D8E2819000F8F
(1691508142.971431) can1 10FF031C#10B7350C8A31E564
(1691508142.971975) can1 10FF011C#75FA311898B15EC1
(1691508142.972549) can1 10FF021C#80700000084C0000
(1691508142.973714) can1 0CF00400#607D8E2719000F8F
(1691508142.987501) can1 18FEF100#FF0000FCFF3D00CF
(1691508142.993638) can1 0CF00400#707D8E1919000F8F
(1691508143.013683) can1 0CF00400#307D8FD918000F8F
(1691508143.033728) can1 0CF00400#507D8FE618000F90
(1691508143.053689) can1 0CF00400#307D8FF918000F8F
(1691508143.070067) can1 10FF031C#1057BC0D8A31E564
(1691508143.070609) can1 10FF011C#75FA311899B15EC1
(1691508143.071180) can1 10FF021C#80510100084C0000
(1691508143.073725) can1 0CF00400#207D8F0619000F8F
(1691508143.087518) can1 18FEF100#FF0000FCFF3D00CF
(1691508143.093666) can1 0CF00400#107D8F1819000F8F
(1691508143.113684) can1 0CF00400#007D8F1B19000F8F
(1691508143.133790) can1 0CF00400#007D8F1E19000F8F
(1691508143.153745) can1 0CF00400#107D8FF418000F8F
(1691508143.173730) can1 0CF00400#707D8FDF18000F90
(1691508143.178344) can1 10FF031C#10B700008B31E564
(1691508143.178893) can1 10FF011C#76FA311899B15EC1
(1691508143.179473) can1 10FF021C#00E10000084C0000
(1691508143.208450) can1 18FEF100#FF0000FCFF3D00CF
(1691508143.209009) can1 0CF00400#407D8FF518000F8F
(1691508143.213717) can1 0CF00400#207D8F0319000F8F
(1691508143.233807) can1 0CF00400#007D8F2A19000F8F
(1691508143.253716) can1 0CF00400#407D8E4019000F8F
(1691508143.273336) can1 10FF031C#105787018B31E564
(1691508143.273894) can1 0CF00400#607D8E2F19000F8F
(1691508143.274440) can1 10FF011C#76FA311899B15EC1
(1691508143.275008) can1 10FF021C#50270100084C0000
(1691508143.287793) can1 18FEF100#FF0000FCFF3D00CF
(1691508143.293690) can1 0CF00400#607D8E2E19000F8F
(1691508143.313760) can1 0CF00400#207D8FED18000F8F
(1691508143.333766) can1 0CF00400#407D8FF318000F8F
(1691508143.353783) can1 0CF00400#307D8FFE18000F8F
(1691508143.371396) can1 10FF031C#10F70D038B31E564
(1691508143.371940) can1 10FF011C#77FA311899B15EC1
(1691508143.372510) can1 10FF021C#50460000084C0000
(1691508143.373819) can1 0CF00400#207D8F0C19000F8F
(1691508143.387593) can1 18FEF100#FF0000FCFF3D00CF
(1691508143.393772) can1 0CF00400#007D8F2419000F8F
(1691508143.413688) can1 0CF00400#607D8E2D19000F8F
(1691508143.433805) can1 0CF00400#707D8E2519000F8F
(1691508143.453766) can1 0CF00400#107D8FFA18000F8F
(1691508143.471492) can1 10FF031C#109794048B31E564
(1691508143.472034) can1 10FF011C#78FA31189AB15EC1
(1691508143.472605) can1 10FF021C#E0C40000084C0000
(1691508143.501586) can1 0CF00400#707D8FE118000F90
(1691508143.502155) can1 0CF00400#407D8FEC18000F90
(1691508143.502727) can1 18FEF100#FF0000FCFF3D00CF
(1691508143.513775) can1 0CF00400#407D8FF218000F8F
(1691508143.533783) can1 0CF00400#307D8FFF18000F8F
(1691508143.553761) can1 0CF00400#207D8F1619000F8F
(1691508143.570111) can1 10FF031C#10371B068B31E564
(1691508143.570654) can1 10FF011C#78FA31189AB15EC1
(1691508143.571233) can1 10FF021C#00E10000084C0000
(1691508143.574429) can1 0CF00400#307D8F0D19000F8F
(1691508143.587591) can1 18FEF100#FF0000FCFF3D00CF
(1691508143.593731) can1 0CF00400#407D8FFF18000F8F
(1691508143.613786) can1 0CF00400#107D90BA18000F90
(1691508143.633871) can1 0CF00400#207D90DB18000F90
(1691508143.653797) can1 0CF00400#707D8FEF18000F90
(1691508143.671323) can1 10FF031C#10D7A1078B31E564
(1691508143.671867) can1 10FF011C#79FA31189AB15EC1
(1691508143.672451) can1 10FF021C#40FA0100084C0000
(1691508143.673821) can1 0CF00400#607D8F0619000F90
(1691508143.687662) can1 18FEF100#FF0000FCFF3D00CF
(1691508143.693797) can1 0CF00400#207D8F3619000F8F
(1691508143.713746) can1 0CF00400#007D8F3819000F8F
(1691508143.733867) can1 0CF00400#007D8F4619000F8F
(1691508143.753826) can1 0CF00400#007D8F1819000F8F
(1691508143.771347) can1 10FF031C#107728098B31E564
(1691508143.771895) can1 10FF011C#79FA31189AB15EC1
(1691508143.772476) can1 10FF021C#907E0000084C0000
(1691508143.801465) can1 0CF00400#707D8FF518000F90
(1691508143.802016) can1 0CF00400#507D8F0319000F90
(1691508143.802585) can1 18FEF100#FF0000FCFF3D00CF
(1691508143.813798) can1 0CF00400#407D8F1019000F8F
(1691508143.833850) can1 0CF00400#307D8F1619000F8F
(1691508143.853798) can1 0CF00400#107D8F2819000F8F
(1691508143.871254) can1 10FF031C#1017AF0A8B31E564
(1691508143.871798) can1 10FF011C#7AFA31189BB15EC1
(1691508143.872387) can1 10FF021C#20FD0000084C0000
(1691508143.874438) can1 0CF00400#007D8F2419000F8F
(1691508143.887671) can1 18FEF100#FF0000FCFF3D00CF
(1691508143.893831) can1 0CF00400#107D8F1219000F8F
(1691508143.913820) can1 0CF00400#407D8FDE18000F90
(1691508143.933868) can1 0CF00400#507D8FEE18000F90
(1691508143.953836) can1 0CF00400#307D8FFE18000F8F
(1691508143.971241) can1 10FF031C#10B7350C8B31E564
(1691508143.971782) can1 10FF011C#7AFA31189BB15EC1
(1691508143.972358) can1 10FF021C#E0C40000084C0000
(1691508144.001330) can1 0CF00400#107D8F1619000F8F
(1691508144.001891) can1 0CF00400#607D8E3519000F8F
(1691508144.002462) can1 18FEF100#FF0000FCFF3D00CF
(1691508144.013813) can1 0CF00400#407D8E2F19000F8E
(1691508144.033864) can1 0CF00400#507D8E2919000F8F
(1691508144.053852) can1 0CF00400#707D8EF818000F8F
(1691508144.070136) can1 10FF031C#1057BC0D8B31E564
(1691508144.070680) can1 10FF011C#7AFA31189BB15EC1
(1691508144.071252) can1 10FF021C#C0A80000084C0000
(1691508144.074472) can1 0CF00400#507D8FDE18000F90
(1691508144.087706) can1 18FEF100#FF0000FCFF3D00CF
(1691508144.093819) can1 0CF00400#207D8FE618000F8F
(1691508144.113872) can1 0CF00400#107D8FED18000F8F
(1691508144.133930) can1 0CF00400#707D8E0D19000F8F
(1691508144.153840) can1 0CF00400#407D8E1E19000F8F
(1691508144.174430) can1 0CF00400#507D8E1719000F8F
(1691508144.177492) can1 10FF031C#10B700008C31E564
(1691508144.178039) can1 10FF011C#7BFA31189BB15EC1
(1691508144.178611) can1 10FF021C#B09A0000084C0000
(1691508144.207594) can1 18FEF100#FF0000FCFF3D00CF
(1691508144.208148) can1 0CF00400#507D8E1219000F8F
(1691508144.213880) can1 0CF00400#207D8FCA18000F8F
(1691508144.233958) can1 0CF00400#307D8FE018000F8F
(1691508144.253857) can1 0CF00400#107D8FF318000F8F
(1691508144.273064) can1 10FF031C#105787018C31E564
(1691508144.273615) can1 10FF011C#7CFA31189BB15EC1
(1691508144.274182) can1 10FF021C#D0B60000084C0000
(1691508144.274751) can1 0CF00400#707D8EFB18000F8F
(1691508144.287966) can1 18FEF100#FF0000FCFF3D00CF
(1691508144.293872) can1 0CF00400#607D8E1E19000F8F
(1691508144.313857) can1 0CF00400#307D8E2519000F8E
(1691508144.333914) can1 0CF00400#507D8E1519000F8F
(1691508144.353942) can1 0CF00400#107D8FDF18000F8F
(1691508144.371250) can1 10FF031C#10F70D038C31E564
(1691508144.371798) can1 10FF011C#7CFA31189BB15EC1
(1691508144.372375) can1 10FF021C#E0C40000084C0000
(1691508144.374463) can1 0CF00400#607D8FC818000F90
(1691508144.387720) can1 18FEF100#FF0000FCFF3D00CF
(1691508144.393931) can1 0CF00400#507D8FCC18000F90
(1691508144.413903) can1 0CF00400#307D8FE318000F8F
(1691508144.433944) can1 0CF00400#107D8FF918000F8F
(1691508144.453932) can1 0CF00400#007D8F0A19000F8F
(1691508144.472013) can1 10FF031C#109794048C31E564
(1691508144.472568) can1 10FF011C#7CFA31189BB15EC1
(1691508144.473135) can1 10FF021C#60350100084C0000
(1691508144.502116) can1 0CF00400#107D8F0819000F8F
(1691508144.502675) can1 0CF00400#007D8F0219000F8F
(1691508144.503247) can1 18FEF100#FF0000FCFF3D00CF
(1691508144.513932) can1 0CF00400#507D8FBD18000F90
(1691508144.533957) can1 0CF00400#707D8FD918000F90
(1691508144.553937) can1 0CF00400#407D8FF118000F8F
(1691508144.570075) can1 10FF031C#10371B068C31E564
(1691508144.570621) can1 10FF011C#7CFA31189CB15EC1
(1691508144.571190) can1 10FF021C#B09A0000084C0000
(1691508144.574468) can1 0CF00400#207D8F0019000F8F
(1691508144.587749) can1 18FEF100#FF0000FCFF3D00CF
(1691508144.593930) can1 0CF00400#007D8F2219000F8F
(1691508144.613941) can1 0CF00400#607D8E1E19000F8F
(1691508144.634012) can1 0CF00400#707D8E2519000F8F
(1691508144.653943) can1 0CF00400#007D8FF718000F8F
(1691508144.672015) can1 10FF031C#10D7A1078C31E564
(1691508144.672567) can1 10FF011C#7CFA31189CB15EC1
(1691508144.673142) can1 10FF021C#D0780200084C0000
(1691508144.702113) can1 0CF00400#607D8FE118000F90
(1691508144.702675) can1 0CF00400#407D8FEA18000F8F
(1691508144.703246) can1 18FEF100#FF0000FCFF3D00CF
(1691508144.713951) can1 0CF00400#207D8FF518000F8F
(1691508144.734032) can1 0CF00400#107D8F0C19000F8F
(1691508144.753952) can1 0CF00400#707D8E2719000F8F
(1691508144.772504) can1 10FF031C#107728098C31E564
(1691508144.773053) can1 10FF011C#7CFA31189DB15EC1
(1691508144.773624) can1 10FF021C#10D00100084C0000
(1691508144.774424) can1 0CF00400#707D8E1819000F8F
(1691508144.787780) can1 18FEF100#FF0000FCFF3D00CF
(1691508144.793935) can1 0CF00400#007D8F0B19000F8F
(1691508144.813984) can1 0CF00400#307D8FD718000F8F
(1691508144.834011) can1 0CF00400#507D8FE118000F90
(1691508144.853953) can1 0CF00400#407D8FEB18000F90
(1691508144.872516) can1 10FF031C#1017AF0A8C31E564
(1691508144.873061) can1 10FF011C#7CFA31189DB15EC1
(1691508144.873637) can1 10FF021C#00A30200084C0000
(1691508144.902602) can1 0CF00400#307D8FFA18000F8F
(1691508144.903163) can1 0CF00400#107D8F1619000F8F
(1691508144.903735) can1 18FEF100#FF0000FCFF3D00CF
(1691508144.913992) can1 0CF00400#007D8F1819000F8F
(1691508144.934022) can1 0CF00400#007D8F1919000F8F
(1691508144.954006) can1 0CF00400#207D8FE418000F8F
(1691508144.973240) can1 10FF031C#10B7350C8C31E564
(1691508144.973790) can1 10FF011C#7DFA31189EB15EC1
(1691508144.974361) can1 10FF021C#905F0100084C0000
(1691508144.974940) can1 0CF00400#007D90D518000F90
(1691508144.987799) can1 18FEF100#FF0000FCFF3D00CF
(1691508144.993948) can1 0CF00400#407D8FF118000F8F
(1691508145.013944) can1 0CF00400#307D8FF318000F8F
(1691508145.034033) can1 0CF00400#207D8F1619000F8F
(1691508145.053969) can1 0CF00400#607D8E2F19000F8F
(1691508145.070957) can1 10FF031C#1057BC0D8C31E564
(1691508145.071511) can1 10FF011C#7DFA31189FB15EC1
(1691508145.072090) can1 10FF021C#201C0000084C0000
(1691508145.074469) can1 0CF00400#707D8E2819000F8F
(1691508145.087817) can1 18FEF100#FF0000FCFF3D00CF
(1691508145.093967) can1 0CF00400#707D8E1C19000F8F
(1691508145.114011) can1 0CF00400#307D8FD918000F8F
(1691508145.134081) can1 0CF00400#607D8FE918000F90
(1691508145.154004) can1 0CF00400#507D8FF618000F90
(1691508145.174466) can1 0CF00400#307D8F0219000F8F
(1691508145.183165) can1 10FF031C#10B700008D31E564
(1691508145.183723) can1 10FF011C#7DFA3118A0B15EC1
(1691508145.184299) can1 10FF021C#60350100084C0000
(1691508145.213266) can1 18FEF100#FF0000FCFF3D00CF
(1691508145.213831) can1 0CF00400#207D8F1C19000F8F
(1691508145.214398) can1 0CF00400#007D8F2419000F8F
(1691508145.234111) can1 0CF00400#107D8F1D19000F8F
(1691508145.254015) can1 0CF00400#307D8FF218000F8F
(1691508145.274499) can1 0CF00400#107D90D718000F90
(1691508145.277386) can1 10FF031C#105887018D31E564
(1691508145.277941) can1 10FF011C#7DFA3118A0B15EC1
(1691508145.278517) can1 10FF021C#20DE0100084C0000
(1691508145.288392) can1 18FEF100#FF0000FCFF3D00CF
(1691508145.294055) can1 0CF00400#707D8FDE18000F90
(1691508145.314035) can1 0CF00400#607D8FF418000F90
(1691508145.334084) can1 0CF00400#407D8F0719000F90
(1691508145.354059) can1 0CF00400#307D8F1319000F8F
(1691508145.373043) can1 10FF031C#10F80D038D31E564
(1691508145.373592) can1 10FF011C#7EFA3118A1B15EC1
(1691508145.374163) can1 10FF021C#F0B30100084C0000
(1691508145.374723) can1 0CF00400#407D8F0F19000F90
(1691508145.387871) can1 18FEF100#FF0000FCFF3D00CF
(1691508145.394049) can1 0CF00400#307D8F0A19000F8F
(1691508145.414041) can1 0CF00400#007D90C818000F90
(1691508145.434125) can1 0CF00400#107D90E918000F90
(1691508145.454127) can1 0CF00400#607D8FFC18000F90
(1691508145.472505) can1 10FF031C#109894048D31E564
(1691508145.473052) can1 10FF011C#7EFA3118A1B15EC1
(1691508145.473624) can1 10FF021C#90210300084C0000
(1691508145.502613) can1 0CF00400#507D8F1319000F90
(1691508145.503156) can1 0CF00400#007D8F4519000F8F
(1691508145.503727) can1 18FEF100#FF0000FCFF3D00CF
(1691508145.514072) can1 0CF00400#507D8E4519000F8F
(1691508145.534116) can1 0CF00400#607D8E4819000F8F
(1691508145.554047) can1 0CF00400#707D8E1C19000F8F
(1691508145.571253) can1 10FF031C#10381B068D31E564
(1691508145.571800) can1 10FF011C#7EFA3118A2B15EC1
(1691508145.572380) can1 10FF021C#B07B0100084C0000
(1691508145.574667) can1 0CF00400#407D8F0519000F90
(1691508145.587929) can1 18FEF100#FF0000FCFF3D00CF
(1691508145.594060) can1 0CF00400#207D8F0A19000F8F
(1691508145.614078) can1 0CF00400#107D8F1019000F8F
(1691508145.634106) can1 0CF00400#007D8F1F19000F8F
(1691508145.654070) can1 0CF00400#507D8E3919000F8F
(1691508145.673121) can1 10FF031C#10D8A1078D31E564
(1691508145.673670) can1 10FF011C#7FFA3118A2B15EC1
(1691508145.674236) can1 10FF021C#50270100084C0000
(1691508145.703208) can1 0CF00400#507D8E2E19000F8F
(1691508145.703775) can1 0CF00400#507D8E1819000F8F
(1691508145.704352) can1 18FEF100#FF0000FCFF3D00CF
(1691508145.714095) can1 0CF00400#107D8FE318000F8F
(1691508145.734186) can1 0CF00400#207D8FF418000F8F
(1691508145.754115) can1 0CF00400#007D8F0319000F8F
(1691508145.773000) can1 10FF031C#107828098D31E564
(1691508145.773549) can1 10FF011C#7FFA3118A2B15EC1
(1691508145.774120) can1 10FF021C#B09A0000084C0000
